(1700000000.009586) can0 0B0#B000000000000000
(1700000000.015022) can0 110#1000000000000000
(1700000000.020278) can0 0B0#B001000000000000
(1700000000.027054) can0 185#8500000000000000
(1700000000.030263) can0 0B0#B002000000000000
(1700000000.031847) can0 110#1001000000000000
(1700000000.040178) can0 0B0#B003000000000000
(1700000000.042635) can0 224#2400000000000000
(1700000000.046750) can0 110#1002000000000000
(1700000000.050332) can0 185#8501000000000000
(1700000000.051142) can0 0B0#B004000000000000
(1700000000.061027) can0 0B0#B005000000000000
(1700000000.061062) can0 110#1003000000000000
(1700000000.067969) can0 2A9#A900000000000000
(1700000000.070333) can0 0B0#B006000000000000
(1700000000.075920) can0 185#8502000000000000
(1700000000.077434) can0 110#1004000000000000
(1700000000.079874) can0 0B0#B007000000000000
(1700000000.086026) can0 224#2401000000000000
(1700000000.090209) can0 0B0#B008000000000000
(1700000000.091354) can0 333#3300000000000000
(1700000000.093497) can0 110#1005000000000000
(1700000000.099937) can0 0B0#B009000000000000
(1700000000.102169) can0 185#8503000000000000
(1700000000.107911) can0 110#1006000000000000
(1700000000.110351) can0 0B0#B00A000000000000
(1700000000.119484) can0 0B0#B00B000000000000
(1700000000.122929) can0 110#1007000000000000
(1700000000.126704) can0 185#8504000000000000
(1700000000.127387) can0 224#2402000000000000
(1700000000.129414) can0 2A9#A901000000000000
(1700000000.129982) can0 0B0#B00C000000000000
(1700000000.139766) can0 0B0#B00D000000000000
(1700000000.140171) can0 110#1008000000000000
(1700000000.149852) can0 0B0#B00E000000000000
(1700000000.151962) can0 185#8505000000000000
(1700000000.154525) can0 110#1009000000000000
(1700000000.159437) can0 0B0#B00F000000000000
(1700000000.165101) can0 224#2403000000000000
(1700000000.168842) can0 0B0#B010000000000000
(1700000000.170319) can0 110#100A000000000000
(1700000000.178334) can0 185#8506000000000000
(1700000000.178350) can0 0B0#B011000000000000
(1700000000.187456) can0 110#100B000000000000
(1700000000.187932) can0 0B0#B012000000000000
(1700000000.192291) can0 333#3301000000000000
(1700000000.192720) can0 2A9#A902000000000000
(1700000000.198673) can0 0B0#B013000000000000
(1700000000.202123) can0 185#8507000000000000
(1700000000.202283) can0 110#100C000000000000
(1700000000.208417) can0 224#2404000000000000
(1700000000.208448) can0 0B0#B014000000000000
(1700000000.217661) can0 110#100D000000000000
(1700000000.218698) can0 0B0#B015000000000000
(1700000000.228545) can0 0B0#B016000000000000
(1700000000.229696) can0 185#8508000000000000
(1700000000.233254) can0 110#100E000000000000
(1700000000.237660) can0 0B0#B017000000000000
(1700000000.246314) can0 224#2405000000000000
(1700000000.248128) can0 0B0#B018000000000000
(1700000000.249201) can0 110#100F000000000000
(1700000000.249577) can0 2A9#A903000000000000
(1700000000.253389) can0 185#8509000000000000
(1700000000.257360) can0 0B0#B019000000000000
(1700000000.264302) can0 110#1010000000000000
(1700000000.267810) can0 0B0#B01A000000000000
(1700000000.276888) can0 185#850A000000000000
(1700000000.278055) can0 0B0#B01B000000000000
(1700000000.280895) can0 110#1011000000000000
(1700000000.283863) can0 333#3302000000000000
(1700000000.286957) can0 224#2406000000000000
(1700000000.288738) can0 0B0#B01C000000000000
(1700000000.297726) can0 110#1012000000000000
(1700000000.298098) can0 0B0#B01D000000000000
(1700000000.304414) can0 185#850B000000000000
(1700000000.308008) can0 0B0#B01E000000000000
(1700000000.314738) can0 110#1013000000000000
(1700000000.317891) can0 2A9#A904000000000000
(1700000000.318387) can0 0B0#B01F000000000000
(1700000000.328462) can0 0B0#B020000000000000
(1700000000.328526) can0 185#850C000000000000
(1700000000.329086) can0 224#2407000000000000
(1700000000.331199) can0 110#1014000000000000
(1700000000.339058) can0 0B0#B021000000000000
(1700000000.348432) can0 110#1015000000000000
(1700000000.348683) can0 0B0#B022000000000000
(1700000000.355406) can0 185#850D000000000000
(1700000000.358336) can0 0B0#B023000000000000
(1700000000.364900) can0 110#1016000000000000
(1700000000.368163) can0 0B0#B024000000000000
(1700000000.370002) can0 224#2408000000000000
(1700000000.379006) can0 0B0#B025000000000000
(1700000000.379542) can0 333#3303000000000000
(1700000000.379762) can0 2A9#A905000000000000
(1700000000.381283) can0 110#1017000000000000
(1700000000.382364) can0 185#850E000000000000
(1700000000.389216) can0 0B0#B026000000000000
(1700000000.397505) can0 110#1018000000000000
(1700000000.398986) can0 0B0#B027000000000000
(1700000000.407785) can0 185#850F000000000000
(1700000000.409129) can0 0B0#B028000000000000
(1700000000.411998) can0 110#1019000000000000
(1700000000.412956) can0 224#2409000000000000
(1700000000.419151) can0 0B0#B029000000000000
(1700000000.426866) can0 110#101A000000000000
(1700000000.428620) can0 0B0#B02A000000000000
(1700000000.432660) can0 185#8510000000000000
(1700000000.437787) can0 0B0#B02B000000000000
(1700000000.439361) can0 2A9#A906000000000000
(1700000000.443757) can0 110#101B000000000000
(1700000000.446855) can0 0B0#B02C000000000000
(1700000000.455113) can0 224#240A000000000000
(1700000000.455796) can0 185#8511000000000000
(1700000000.457330) can0 0B0#B02D000000000000
(1700000000.458393) can0 110#101C000000000000
(1700000000.467456) can0 0B0#B02E000000000000
(1700000000.473356) can0 110#101D000000000000
(1700000000.475023) can0 333#3304000000000000
(1700000000.477491) can0 0B0#B02F000000000000
(1700000000.480487) can0 185#8512000000000000
(1700000000.487769) can0 0B0#B030000000000000
(1700000000.490551) can0 110#101E000000000000
(1700000000.492926) can0 224#240B000000000000
(1700000000.497897) can0 0B0#B031000000000000
(1700000000.500600) can0 2A9#A907000000000000
(1700000000.507236) can0 110#101F000000000000
(1700000000.507448) can0 0B0#B032000000000000
(1700000000.508106) can0 185#8513000000000000
(1700000000.516967) can0 0B0#B033000000000000
(1700000000.522170) can0 110#1020000000000000
(1700000000.527429) can0 0B0#B034000000000000
(1700000000.531029) can0 224#240C000000000000
(1700000000.533345) can0 185#8514000000000000
(1700000000.536820) can0 110#1021000000000000
(1700000000.537521) can0 0B0#B035000000000000
(1700000000.546738) can0 0B0#B036000000000000
(1700000000.553180) can0 110#1022000000000000
(1700000000.555786) can0 0B0#B037000000000000
(1700000000.560248) can0 185#8515000000000000
(1700000000.566648) can0 0B0#B038000000000000
(1700000000.569398) can0 2A9#A908000000000000
(1700000000.569452) can0 110#1023000000000000
(1700000000.569795) can0 224#240D000000000000
(1700000000.575756) can0 0B0#B039000000000000
(1700000000.576768) can0 333#3305000000000000
(1700000000.584508) can0 185#8516000000000000
(1700000000.585026) can0 110#1024000000000000
(1700000000.586255) can0 0B0#B03A000000000000
(1700000000.595286) can0 0B0#B03B000000000000
(1700000000.599415) can0 110#1025000000000000
(1700000000.606229) can0 0B0#B03C000000000000
(1700000000.608137) can0 224#240E000000000000
(1700000000.611305) can0 185#8517000000000000
(1700000000.614046) can0 110#1026000000000000
(1700000000.615360) can0 0B0#B03D000000000000
(1700000000.625909) can0 0B0#B03E000000000000
(1700000000.628994) can0 110#1027000000000000
(1700000000.635370) can0 0B0#B03F000000000000
(1700000000.638080) can0 185#8518000000000000
(1700000000.638308) can0 2A9#A909000000000000
(1700000000.643709) can0 110#1028000000000000
(1700000000.646044) can0 0B0#B040000000000000
(1700000000.648477) can0 224#240F000000000000
(1700000000.655488) can0 0B0#B041000000000000
(1700000000.659187) can0 110#1029000000000000
(1700000000.664284) can0 185#8519000000000000
(1700000000.665589) can0 0B0#B042000000000000
(1700000000.675665) can0 110#102A000000000000
(1700000000.675777) can0 333#3306000000000000
(1700000000.676423) can0 0B0#B043000000000000
(1700000000.686429) can0 0B0#B044000000000000
(1700000000.688252) can0 224#2410000000000000
(1700000000.689284) can0 185#851A000000000000
(1700000000.691106) can0 110#102B000000000000
(1700000000.697369) can0 0B0#B045000000000000
(1700000000.699075) can0 2A9#A90A000000000000
(1700000000.706511) can0 0B0#B046000000000000
(1700000000.707330) can0 110#102C000000000000
(1700000000.715940) can0 185#851B000000000000
(1700000000.716005) can0 0B0#B047000000000000
(1700000000.721833) can0 110#102D000000000000
(1700000000.725550) can0 224#2411000000000000
(1700000000.725615) can0 0B0#B048000000000000
(1700000000.735296) can0 0B0#B049000000000000
(1700000000.737549) can0 110#102E000000000000
(1700000000.742707) can0 185#851C000000000000
(1700000000.744956) can0 0B0#B04A000000000000
(1700000000.753048) can0 110#102F000000000000
(1700000000.755468) can0 0B0#B04B000000000000
(1700000000.757586) can0 2A9#A90B000000000000
(1700000000.764200) can0 224#2412000000000000
(1700000000.765306) can0 0B0#B04C000000000000
(1700000000.765380) can0 185#851D000000000000
(1700000000.769579) can0 110#1030000000000000
(1700000000.771121) can0 333#3307000000000000
(1700000000.775279) can0 0B0#B04D000000000000
(1700000000.784565) can0 0B0#B04E000000000000
(1700000000.785145) can0 110#1031000000000000
(1700000000.790188) can0 185#851E000000000000
(1700000000.795104) can0 0B0#B04F000000000000
(1700000000.801237) can0 110#1032000000000000
(1700000000.802889) can0 224#2413000000000000
(1700000000.805230) can0 0B0#B050000000000000
(1700000000.814378) can0 185#851F000000000000
(1700000000.814880) can0 0B0#B051000000000000
(1700000000.817298) can0 110#1033000000000000
(1700000000.821033) can0 2A9#A90C000000000000
(1700000000.824900) can0 0B0#B052000000000000
(1700000000.832544) can0 110#1034000000000000
(1700000000.835399) can0 0B0#B053000000000000
(1700000000.839168) can0 185#8520000000000000
(1700000000.841565) can0 224#2414000000000000
(1700000000.844429) can0 0B0#B054000000000000
(1700000000.848284) can0 110#1035000000000000
(1700000000.853623) can0 0B0#B055000000000000
(1700000000.862660) can0 0B0#B056000000000000
(1700000000.864312) can0 333#3308000000000000
(1700000000.864886) can0 185#8521000000000000
(1700000000.864910) can0 110#1036000000000000
(1700000000.873472) can0 0B0#B057000000000000
(1700000000.878321) can0 224#2415000000000000
(1700000000.881845) can0 110#1037000000000000
(1700000000.884245) can0 0B0#B058000000000000
(1700000000.888775) can0 2A9#A90D000000000000
(1700000000.892367) can0 185#8522000000000000
(1700000000.893794) can0 0B0#B059000000000000
(1700000000.898625) can0 110#1038000000000000
(1700000000.903007) can0 0B0#B05A000000000000
(1700000000.912295) can0 0B0#B05B000000000000
(1700000000.914391) can0 110#1039000000000000
(1700000000.919104) can0 185#8523000000000000
(1700000000.919966) can0 224#2416000000000000
(1700000000.922792) can0 0B0#B05C000000000000
(1700000000.931684) can0 110#103A000000000000
(1700000000.933156) can0 0B0#B05D000000000000
(1700000000.943140) can0 0B0#B05E000000000000
(1700000000.944994) can0 185#8524000000000000
(1700000000.947531) can0 110#103B000000000000
(1700000000.951355) can0 2A9#A90E000000000000
(1700000000.953812) can0 0B0#B05F000000000000
(1700000000.956445) can0 224#2417000000000000
(1700000000.962989) can0 333#3309000000000000
(1700000000.963337) can0 110#103C000000000000
(1700000000.963765) can0 0B0#B060000000000000
(1700000000.968089) can0 185#8525000000000000
(1700000000.974742) can0 0B0#B061000000000000
(1700000000.979422) can0 110#103D000000000000
(1700000000.983776) can0 0B0#B062000000000000
(1700000000.993794) can0 0B0#B063000000000000
(1700000000.995685) can0 185#8526000000000000
(1700000000.996479) can0 224#2418000000000000
(1700000000.996482) can0 110#103E000000000000
(1700000001.003330) can0 0B0#B064000000000000
(1700000001.010823) can0 110#103F000000000000
(1700000001.012848) can0 0B0#B065000000000000
(1700000001.013311) can0 2A9#A90F000000000000
(1700000001.022029) can0 185#8527000000000000
(1700000001.022076) can0 0B0#B066000000000000
(1700000001.026367) can0 110#1040000000000000
(1700000001.031084) can0 0B0#B067000000000000
(1700000001.035808) can0 224#2419000000000000
(1700000001.041380) can0 0B0#B068000000000000
(1700000001.043003) can0 110#1041000000000000
(1700000001.045237) can0 185#8528000000000000
(1700000001.051435) can0 0B0#B069000000000000
(1700000001.059331) can0 110#1042000000000000
(1700000001.062423) can0 0B0#B06A000000000000
(1700000001.069852) can0 333#330A000000000000
(1700000001.070082) can0 185#8529000000000000
(1700000001.072968) can0 0B0#B06B000000000000
(1700000001.075095) can0 224#241A000000000000
(1700000001.075659) can0 110#1043000000000000
(1700000001.081410) can0 2A9#A910000000000000
(1700000001.082328) can0 0B0#B06C000000000000
(1700000001.091282) can0 110#1044000000000000
(1700000001.091612) can0 0B0#B06D000000000000
(1700000001.093882) can0 185#852A000000000000
(1700000001.101088) can0 0B0#B06E000000000000
(1700000001.107439) can0 110#1045000000000000
(1700000001.111086) can0 0B0#B06F000000000000
(1700000001.112240) can0 224#241B000000000000
(1700000001.119597) can0 185#852B000000000000
(1700000001.121850) can0 0B0#B070000000000000
(1700000001.122273) can0 110#1046000000000000
(1700000001.132732) can0 0B0#B071000000000000
(1700000001.137857) can0 110#1047000000000000
(1700000001.142131) can0 0B0#B072000000000000
(1700000001.142985) can0 2A9#A911000000000000
(1700000001.144584) can0 185#852C000000000000
(1700000001.151547) can0 0B0#B073000000000000
(1700000001.155149) can0 110#1048000000000000
(1700000001.155461) can0 224#241C000000000000
(1700000001.161566) can0 0B0#B074000000000000
(1700000001.164441) can0 333#330B000000000000
(1700000001.169956) can0 185#852D000000000000
(1700000001.170094) can0 110#1049000000000000
(1700000001.171567) can0 0B0#B075000000000000
(1700000001.182465) can0 0B0#B076000000000000
(1700000001.186118) can0 110#104A000000000000
(1700000001.192158) can0 0B0#B077000000000000
(1700000001.193153) can0 185#852E000000000000
(1700000001.196038) can0 224#241D000000000000
(1700000001.200590) can0 2A9#A912000000000000
(1700000001.200726) can0 110#104B000000000000
(1700000001.201369) can0 0B0#B078000000000000
(1700000001.211232) can0 0B0#B079000000000000
(1700000001.216639) can0 110#104C000000000000
(1700000001.216987) can0 185#852F000000000000
(1700000001.222025) can0 0B0#B07A000000000000
(1700000001.232042) can0 0B0#B07B000000000000
(1700000001.232348) can0 224#241E000000000000
(1700000001.233321) can0 110#104D000000000000
(1700000001.242676) can0 0B0#B07C000000000000
(1700000001.244547) can0 185#8530000000000000
(1700000001.248690) can0 110#104E000000000000
(1700000001.252184) can0 0B0#B07D000000000000
(1700000001.257743) can0 333#330C000000000000
(1700000001.261892) can0 0B0#B07E000000000000
(1700000001.264850) can0 2A9#A913000000000000
(1700000001.265094) can0 110#104F000000000000
(1700000001.271222) can0 185#8531000000000000
(1700000001.271446) can0 0B0#B07F000000000000
(1700000001.272957) can0 224#241F000000000000
(1700000001.280614) can0 0B0#B080000000000000
(1700000001.281900) can0 110#1050000000000000
(1700000001.290813) can0 0B0#B081000000000000
(1700000001.293842) can0 185#8532000000000000
(1700000001.296630) can0 110#1051000000000000
(1700000001.301033) can0 0B0#B082000000000000
(1700000001.310461) can0 224#2420000000000000
(1700000001.311685) can0 0B0#B083000000000000
(1700000001.312572) can0 110#1052000000000000
(1700000001.317903) can0 185#8533000000000000
(1700000001.321057) can0 0B0#B084000000000000
(1700000001.328108) can0 2A9#A914000000000000
(1700000001.329976) can0 110#1053000000000000
(1700000001.330285) can0 0B0#B085000000000000
(1700000001.340956) can0 0B0#B086000000000000
(1700000001.341544) can0 185#8534000000000000
(1700000001.346809) can0 224#2421000000000000
(1700000001.347152) can0 110#1054000000000000
(1700000001.350063) can0 0B0#B087000000000000
(1700000001.359773) can0 0B0#B088000000000000
(1700000001.361555) can0 110#1055000000000000
(1700000001.364946) can0 333#330D000000000000
(1700000001.368704) can0 185#8535000000000000
(1700000001.368821) can0 0B0#B089000000000000
(1700000001.377345) can0 110#1056000000000000
(1700000001.379282) can0 0B0#B08A000000000000
(1700000001.388110) can0 224#2422000000000000
(1700000001.388145) can0 2A9#A915000000000000
(1700000001.390127) can0 0B0#B08B000000000000
(1700000001.392894) can0 110#1057000000000000
(1700000001.396059) can0 185#8536000000000000
(1700000001.399952) can0 0B0#B08C000000000000
(1700000001.407414) can0 110#1058000000000000
(1700000001.409239) can0 0B0#B08D000000000000
(1700000001.419679) can0 0B0#B08E000000000000
(1700000001.420112) can0 185#8537000000000000
(1700000001.424061) can0 110#1059000000000000
(1700000001.428926) can0 0B0#B08F000000000000
(1700000001.429382) can0 224#2423000000000000
(1700000001.438189) can0 0B0#B090000000000000
(1700000001.441401) can0 110#105A000000000000
(1700000001.445739) can0 185#8538000000000000
(1700000001.447503) can0 0B0#B091000000000000
(1700000001.452507) can0 2A9#A916000000000000
(1700000001.457178) can0 0B0#B092000000000000
(1700000001.457418) can0 333#330E000000000000
(1700000001.458779) can0 110#105B000000000000
(1700000001.466303) can0 0B0#B093000000000000
(1700000001.468648) can0 224#2424000000000000
(1700000001.468875) can0 185#8539000000000000
(1700000001.475272) can0 110#105C000000000000
(1700000001.476601) can0 0B0#B094000000000000
(1700000001.487579) can0 0B0#B095000000000000
(1700000001.492261) can0 110#105D000000000000
(1700000001.492827) can0 185#853A000000000000
(1700000001.497374) can0 0B0#B096000000000000
(1700000001.507659) can0 0B0#B097000000000000
(1700000001.507710) can0 110#105E000000000000
(1700000001.508135) can0 224#2425000000000000
(1700000001.515569) can0 185#853B000000000000
(1700000001.517074) can0 0B0#B098000000000000
(1700000001.518757) can0 2A9#A917000000000000
(1700000001.524981) can0 110#105F000000000000
(1700000001.527439) can0 0B0#B099000000000000
(1700000001.537394) can0 0B0#B09A000000000000
(1700000001.539468) can0 110#1060000000000000
(1700000001.542335) can0 185#853C000000000000
(1700000001.546664) can0 224#2426000000000000
(1700000001.548260) can0 0B0#B09B000000000000
(1700000001.556812) can0 110#1061000000000000
(1700000001.557400) can0 0B0#B09C000000000000
(1700000001.560971) can0 333#330F000000000000
(1700000001.566193) can0 185#853D000000000000
(1700000001.566467) can0 0B0#B09D000000000000
(1700000001.574208) can0 110#1062000000000000
(1700000001.576363) can0 2A9#A918000000000000
(1700000001.576780) can0 0B0#B09E000000000000
(1700000001.586176) can0 0B0#B09F000000000000
(1700000001.588675) can0 110#1063000000000000
(1700000001.589865) can0 224#2427000000000000
(1700000001.592174) can0 185#853E000000000000
(1700000001.595446) can0 0B0#B0A0000000000000
(1700000001.604510) can0 0B0#B0A1000000000000
(1700000001.605258) can0 110#1064000000000000
(1700000001.615483) can0 0B0#B0A2000000000000
(1700000001.617832) can0 185#853F000000000000
(1700000001.622155) can0 110#1065000000000000
(1700000001.624751) can0 0B0#B0A3000000000000
(1700000001.631874) can0 224#2428000000000000
(1700000001.633552) can0 2A9#A919000000000000
(1700000001.634409) can0 0B0#B0A4000000000000
(1700000001.636783) can0 110#1066000000000000
(1700000001.641609) can0 185#8540000000000000
(1700000001.643428) can0 0B0#B0A5000000000000
(1700000001.654067) can0 110#1067000000000000
(1700000001.654280) can0 0B0#B0A6000000000000
(1700000001.664783) can0 0B0#B0A7000000000000
(1700000001.665771) can0 333#3310000000000000
(1700000001.666363) can0 185#8541000000000000
(1700000001.670386) can0 110#1068000000000000
(1700000001.670981) can0 224#2429000000000000
(1700000001.674078) can0 0B0#B0A8000000000000
(1700000001.684152) can0 0B0#B0A9000000000000
(1700000001.687432) can0 110#1069000000000000
(1700000001.693291) can0 185#8542000000000000
(1700000001.693909) can0 2A9#A91A000000000000
(1700000001.694779) can0 0B0#B0AA000000000000
(1700000001.703829) can0 110#106A000000000000
(1700000001.704019) can0 0B0#B0AB000000000000
(1700000001.710356) can0 224#242A000000000000
(1700000001.714312) can0 0B0#B0AC000000000000
(1700000001.720302) can0 185#8543000000000000
(1700000001.720441) can0 110#106B000000000000
(1700000001.724159) can0 0B0#B0AD000000000000
(1700000001.734872) can0 0B0#B0AE000000000000
(1700000001.735402) can0 110#106C000000000000
(1700000001.745023) can0 0B0#B0AF000000000000
(1700000001.747890) can0 185#8544000000000000
(1700000001.748315) can0 224#242B000000000000
(1700000001.750085) can0 110#106D000000000000
(1700000001.754423) can0 0B0#B0B0000000000000
(1700000001.759034) can0 2A9#A91B000000000000
(1700000001.761258) can0 333#3311000000000000
(1700000001.765134) can0 0B0#B0B1000000000000
(1700000001.766903) can0 110#106E000000000000
(1700000001.774438) can0 185#8545000000000000
(1700000001.775297) can0 0B0#B0B2000000000000
(1700000001.782939) can0 110#106F000000000000
(1700000001.785673) can0 0B0#B0B3000000000000
(1700000001.787873) can0 224#242C000000000000
(1700000001.794698) can0 0B0#B0B4000000000000
(1700000001.799653) can0 110#1070000000000000
(1700000001.800190) can0 185#8546000000000000
(1700000001.805201) can0 0B0#B0B5000000000000
(1700000001.815412) can0 0B0#B0B6000000000000
(1700000001.816420) can0 110#1071000000000000
(1700000001.817703) can0 2A9#A91C000000000000
(1700000001.825289) can0 0B0#B0B7000000000000
(1700000001.826884) can0 185#8547000000000000
(1700000001.827255) can0 224#242D000000000000
(1700000001.833053) can0 110#1072000000000000
(1700000001.835937) can0 0B0#B0B8000000000000
(1700000001.845694) can0 0B0#B0B9000000000000
(1700000001.849121) can0 110#1073000000000000
(1700000001.851985) can0 185#8548000000000000
(1700000001.855756) can0 0B0#B0BA000000000000
(1700000001.866177) can0 110#1074000000000000
(1700000001.866503) can0 0B0#B0BB000000000000
(1700000001.868077) can0 333#3312000000000000
(1700000001.870305) can0 224#242E000000000000
(1700000001.876796) can0 185#8549000000000000
(1700000001.877069) can0 0B0#B0BC000000000000
(1700000001.882662) can0 110#1075000000000000
(1700000001.882677) can0 2A9#A91D000000000000
(1700000001.887965) can0 0B0#B0BD000000000000
(1700000001.897764) can0 110#1076000000000000
(1700000001.897785) can0 0B0#B0BE000000000000
(1700000001.902770) can0 185#854A000000000000
(1700000001.906580) can0 224#242F000000000000
(1700000001.908772) can0 0B0#B0BF000000000000
(1700000001.915168) can0 110#1077000000000000
(1700000001.917934) can0 0B0#B0C0000000000000
(1700000001.927704) can0 0B0#B0C1000000000000
(1700000001.929737) can0 110#1078000000000000
(1700000001.929842) can0 185#854B000000000000
(1700000001.938536) can0 0B0#B0C2000000000000
(1700000001.944452) can0 110#1079000000000000
(1700000001.946022) can0 224#2430000000000000
(1700000001.947765) can0 2A9#A91E000000000000
(1700000001.948994) can0 0B0#B0C3000000000000
(1700000001.957087) can0 185#854C000000000000
(1700000001.958486) can0 0B0#B0C4000000000000
(1700000001.960783) can0 110#107A000000000000
(1700000001.968871) can0 0B0#B0C5000000000000
(1700000001.971636) can0 333#3313000000000000
(1700000001.976730) can0 110#107B000000000000
(1700000001.979120) can0 0B0#B0C6000000000000
(1700000001.983254) can0 185#854D000000000000
(1700000001.984827) can0 224#2431000000000000
(1700000001.988138) can0 0B0#B0C7000000000000
(1700000001.991215) can0 110#107C000000000000
(1700000001.997426) can0 0B0#B0C8000000000000
(1700000002.006141) can0 185#854E000000000000
(1700000002.007157) can0 0B0#B0C9000000000000
(1700000002.007983) can0 110#107D000000000000
(1700000002.016646) can0 2A9#A91F000000000000
(1700000002.017061) can0 0B0#B0CA000000000000
(1700000002.023497) can0 110#107E000000000000
(1700000002.026127) can0 224#2432000000000000
(1700000002.027411) can0 0B0#B0CB000000000000
(1700000002.031671) can0 185#854F000000000000
(1700000002.036460) can0 0B0#B0CC000000000000
(1700000002.038936) can0 110#107F000000000000
(1700000002.046550) can0 0B0#B0CD000000000000
(1700000002.053905) can0 110#1080000000000000
(1700000002.056127) can0 0B0#B0CE000000000000
(1700000002.056853) can0 185#8550000000000000
(1700000002.066058) can0 0B0#B0CF000000000000
(1700000002.069319) can0 224#2433000000000000
(1700000002.070414) can0 110#1081000000000000
(1700000002.074253) can0 333#3314000000000000
(1700000002.076694) can0 0B0#B0D0000000000000
(1700000002.083357) can0 185#8551000000000000
(1700000002.085698) can0 2A9#A920000000000000
(1700000002.086043) can0 0B0#B0D1000000000000
(1700000002.087224) can0 110#1082000000000000
(1700000002.096783) can0 0B0#B0D2000000000000
(1700000002.103740) can0 110#1083000000000000
(1700000002.107098) can0 0B0#B0D3000000000000
(1700000002.109222) can0 185#8552000000000000
(1700000002.109917) can0 224#2434000000000000
(1700000002.117706) can0 0B0#B0D4000000000000
(1700000002.119714) can0 110#1084000000000000
(1700000002.127435) can0 0B0#B0D5000000000000
(1700000002.132839) can0 185#8553000000000000
(1700000002.135036) can0 110#1085000000000000
(1700000002.137140) can0 0B0#B0D6000000000000
(1700000002.146438) can0 224#2435000000000000
(1700000002.146532) can0 0B0#B0D7000000000000
(1700000002.149861) can0 2A9#A921000000000000
(1700000002.149993) can0 110#1086000000000000
(1700000002.156044) can0 0B0#B0D8000000000000
(1700000002.156403) can0 185#8554000000000000
(1700000002.165993) can0 0B0#B0D9000000000000
(1700000002.166865) can0 110#1087000000000000
(1700000002.176636) can0 0B0#B0DA000000000000
(1700000002.180059) can0 333#3315000000000000
(1700000002.180626) can0 185#8555000000000000
(1700000002.181811) can0 110#1088000000000000
(1700000002.184073) can0 224#2436000000000000
(1700000002.185948) can0 0B0#B0DB000000000000
(1700000002.195230) can0 0B0#B0DC000000000000
(1700000002.199147) can0 110#1089000000000000
(1700000002.205070) can0 0B0#B0DD000000000000
(1700000002.205187) can0 185#8556000000000000
(1700000002.207614) can0 2A9#A922000000000000
(1700000002.213757) can0 110#108A000000000000
(1700000002.215455) can0 0B0#B0DE000000000000
(1700000002.220420) can0 224#2437000000000000
(1700000002.226301) can0 0B0#B0DF000000000000
(1700000002.228852) can0 185#8557000000000000
(1700000002.231065) can0 110#108B000000000000
(1700000002.235409) can0 0B0#B0E0000000000000
(1700000002.246015) can0 0B0#B0E1000000000000
(1700000002.246426) can0 110#108C000000000000
(1700000002.252742) can0 185#8558000000000000
(1700000002.256298) can0 0B0#B0E2000000000000
(1700000002.256482) can0 224#2438000000000000
(1700000002.263162) can0 110#108D000000000000
(1700000002.266786) can0 0B0#B0E3000000000000
(1700000002.272592) can0 2A9#A923000000000000
(1700000002.273774) can0 333#3316000000000000
(1700000002.276567) can0 0B0#B0E4000000000000
(1700000002.277608) can0 185#8559000000000000
(1700000002.278699) can0 110#108E000000000000
(1700000002.286013) can0 0B0#B0E5000000000000
(1700000002.293993) can0 110#108F000000000000
(1700000002.295242) can0 224#2439000000000000
(1700000002.296836) can0 0B0#B0E6000000000000
(1700000002.300602) can0 185#855A000000000000
(1700000002.306402) can0 0B0#B0E7000000000000
(1700000002.308626) can0 110#1090000000000000
(1700000002.316290) can0 0B0#B0E8000000000000
(1700000002.325671) can0 110#1091000000000000
(1700000002.325673) can0 0B0#B0E9000000000000
(1700000002.325865) can0 185#855B000000000000
(1700000002.336018) can0 0B0#B0EA000000000000
(1700000002.337739) can0 2A9#A924000000000000
(1700000002.337765) can0 224#243A000000000000
(1700000002.341788) can0 110#1092000000000000
(1700000002.346847) can0 0B0#B0EB000000000000
(1700000002.351828) can0 185#855C000000000000
(1700000002.356286) can0 0B0#B0EC000000000000
(1700000002.356509) can0 110#1093000000000000
(1700000002.366734) can0 0B0#B0ED000000000000
(1700000002.370939) can0 110#1094000000000000
(1700000002.376372) can0 185#855D000000000000
(1700000002.376777) can0 0B0#B0EE000000000000
(1700000002.377008) can0 224#243B000000000000
(1700000002.377321) can0 333#3317000000000000
(1700000002.385806) can0 0B0#B0EF000000000000
(1700000002.388328) can0 110#1095000000000000
(1700000002.396320) can0 0B0#B0F0000000000000
(1700000002.397246) can0 2A9#A925000000000000
(1700000002.403558) can0 185#855E000000000000
(1700000002.405421) can0 110#1096000000000000
(1700000002.405743) can0 0B0#B0F1000000000000
(1700000002.415775) can0 224#243C000000000000
(1700000002.416199) can0 0B0#B0F2000000000000
(1700000002.421864) can0 110#1097000000000000
(1700000002.426064) can0 0B0#B0F3000000000000
(1700000002.428667) can0 185#855F000000000000
(1700000002.436903) can0 0B0#B0F4000000000000
(1700000002.438372) can0 110#1098000000000000
(1700000002.446693) can0 0B0#B0F5000000000000
(1700000002.452833) can0 110#1099000000000000
(1700000002.452962) can0 185#8560000000000000
(1700000002.456686) can0 0B0#B0F6000000000000
(1700000002.457437) can0 224#243D000000000000
(1700000002.462295) can0 2A9#A926000000000000
(1700000002.467109) can0 110#109A000000000000
(1700000002.467665) can0 0B0#B0F7000000000000
(1700000002.467785) can0 333#3318000000000000
(1700000002.476652) can0 185#8561000000000000
(1700000002.477209) can0 0B0#B0F8000000000000
(1700000002.481828) can0 110#109B000000000000
(1700000002.487593) can0 0B0#B0F9000000000000
(1700000002.496395) can0 110#109C000000000000
(1700000002.497859) can0 0B0#B0FA000000000000
(1700000002.499466) can0 185#8562000000000000
(1700000002.500512) can0 224#243E000000000000
(1700000002.508263) can0 0B0#B0FB000000000000
(1700000002.512415) can0 110#109D000000000000
(1700000002.517288) can0 0B0#B0FC000000000000
(1700000002.520686) can0 2A9#A927000000000000
(1700000002.526464) can0 185#8563000000000000
(1700000002.526779) can0 0B0#B0FD000000000000
(1700000002.526945) can0 110#109E000000000000
(1700000002.537004) can0 0B0#B0FE000000000000
(1700000002.543168) can0 224#243F000000000000
(1700000002.543660) can0 110#109F000000000000
(1700000002.547010) can0 0B0#B0FF000000000000
(1700000002.553376) can0 185#8564000000000000
(1700000002.557791) can0 0B0#B000010000000000
(1700000002.560696) can0 110#10A0000000000000
(1700000002.567681) can0 0B0#B001010000000000
(1700000002.572822) can0 333#3319000000000000
(1700000002.577394) can0 0B0#B002010000000000
(1700000002.577817) can0 110#10A1000000000000
(1700000002.580483) can0 185#8565000000000000
(1700000002.581504) can0 2A9#A928000000000000
(1700000002.584985) can0 224#2440000000000000
(1700000002.587852) can0 0B0#B003010000000000
(1700000002.595210) can0 110#10A2000000000000
(1700000002.597198) can0 0B0#B004010000000000
(1700000002.605365) can0 185#8566000000000000
(1700000002.606514) can0 0B0#B005010000000000
(1700000002.610150) can0 110#10A3000000000000
(1700000002.616946) can0 0B0#B006010000000000
(1700000002.627423) can0 110#10A4000000000000
(1700000002.627428) can0 224#2441000000000000
(1700000002.627895) can0 0B0#B007010000000000
(1700000002.631124) can0 185#8567000000000000
(1700000002.638513) can0 0B0#B008010000000000
(1700000002.643818) can0 110#10A5000000000000
(1700000002.646818) can0 2A9#A929000000000000
(1700000002.648352) can0 0B0#B009010000000000
(1700000002.658644) can0 185#8568000000000000
(1700000002.658885) can0 0B0#B00A010000000000
(1700000002.660555) can0 110#10A6000000000000
(1700000002.665490) can0 333#331A000000000000
(1700000002.668895) can0 224#2442000000000000
(1700000002.669054) can0 0B0#B00B010000000000
(1700000002.677460) can0 110#10A7000000000000
(1700000002.678331) can0 0B0#B00C010000000000
(1700000002.685107) can0 185#8569000000000000
(1700000002.688013) can0 0B0#B00D010000000000
(1700000002.693592) can0 110#10A8000000000000
(1700000002.697791) can0 0B0#B00E010000000000
(1700000002.704952) can0 224#2443000000000000
(1700000002.706853) can0 0B0#B00F010000000000
(1700000002.708335) can0 110#10A9000000000000
(1700000002.709751) can0 185#856A000000000000
(1700000002.712507) can0 2A9#A92A000000000000
(1700000002.717582) can0 0B0#B010010000000000
(1700000002.723478) can0 110#10AA000000000000
(1700000002.726583) can0 0B0#B011010000000000
(1700000002.735208) can0 185#856B000000000000
(1700000002.736392) can0 0B0#B012010000000000
(1700000002.738920) can0 110#10AB000000000000
(1700000002.746064) can0 0B0#B013010000000000
(1700000002.747714) can0 224#2444000000000000
(1700000002.755113) can0 0B0#B014010000000000
(1700000002.755578) can0 110#10AC000000000000
(1700000002.759716) can0 185#856C000000000000
(1700000002.764191) can0 0B0#B015010000000000
(1700000002.766472) can0 333#331B000000000000
(1700000002.770807) can0 110#10AD000000000000
(1700000002.774139) can0 0B0#B016010000000000
(1700000002.777528) can0 2A9#A92B000000000000
(1700000002.783504) can0 0B0#B017010000000000
(1700000002.784069) can0 185#856D000000000000
(1700000002.786584) can0 110#10AE000000000000
(1700000002.788028) can0 224#2445000000000000
(1700000002.792770) can0 0B0#B018010000000000
(1700000002.802816) can0 0B0#B019010000000000
(1700000002.803200) can0 110#10AF000000000000
(1700000002.809230) can0 185#856E000000000000
(1700000002.813804) can0 0B0#B01A010000000000
(1700000002.820309) can0 110#10B0000000000000
(1700000002.824333) can0 0B0#B01B010000000000
(1700000002.830942) can0 224#2446000000000000
(1700000002.835282) can0 0B0#B01C010000000000
(1700000002.835772) can0 110#10B1000000000000
(1700000002.835943) can0 185#856F000000000000
(1700000002.838570) can0 2A9#A92C000000000000
(1700000002.844378) can0 0B0#B01D010000000000
(1700000002.850874) can0 110#10B2000000000000
(1700000002.854185) can0 0B0#B01E010000000000
(1700000002.861173) can0 333#331C000000000000
(1700000002.862415) can0 185#8570000000000000
(1700000002.864519) can0 0B0#B01F010000000000
(1700000002.866954) can0 224#2447000000000000
(1700000002.867631) can0 110#10B3000000000000
(1700000002.875172) can0 0B0#B020010000000000
(1700000002.883397) can0 110#10B4000000000000
(1700000002.885887) can0 0B0#B021010000000000
(1700000002.889159) can0 185#8571000000000000
(1700000002.896482) can0 0B0#B022010000000000
(1700000002.898759) can0 110#10B5000000000000
(1700000002.902857) can0 224#2448000000000000
(1700000002.904219) can0 2A9#A92D000000000000
(1700000002.906371) can0 0B0#B023010000000000
(1700000002.914584) can0 110#10B6000000000000
(1700000002.914757) can0 185#8572000000000000
(1700000002.916756) can0 0B0#B024010000000000
(1700000002.927557) can0 0B0#B025010000000000
(1700000002.930016) can0 110#10B7000000000000
(1700000002.937259) can0 0B0#B026010000000000
(1700000002.939089) can0 224#2449000000000000
(1700000002.941115) can0 185#8573000000000000
(1700000002.946613) can0 110#10B8000000000000
(1700000002.946676) can0 0B0#B027010000000000
(1700000002.953882) can0 333#331D000000000000
(1700000002.955899) can0 0B0#B028010000000000
(1700000002.961391) can0 110#10B9000000000000
(1700000002.963883) can0 185#8574000000000000
(1700000002.966693) can0 0B0#B029010000000000
(1700000002.968194) can0 2A9#A92E000000000000
(1700000002.977541) can0 0B0#B02A010000000000
(1700000002.978382) can0 110#10BA000000000000
(1700000002.982660) can0 224#244A000000000000
(1700000002.988469) can0 0B0#B02B010000000000
(1700000002.988861) can0 185#8575000000000000
(1700000002.993841) can0 110#10BB000000000000
(1700000002.999454) can0 0B0#B02C010000000000
(1700000003.008649) can0 0B0#B02D010000000000
(1700000003.008821) can0 110#10BC000000000000
(1700000003.016489) can0 185#8576000000000000
(1700000003.018342) can0 0B0#B02E010000000000
(1700000003.021383) can0 224#244B000000000000
(1700000003.024731) can0 110#10BD000000000000
(1700000003.028327) can0 0B0#B02F010000000000
(1700000003.037511) can0 2A9#A92F000000000000
(1700000003.037921) can0 0B0#B030010000000000
(1700000003.039714) can0 185#8577000000000000
(1700000003.041693) can0 110#10BE000000000000
(1700000003.047987) can0 0B0#B031010000000000
(1700000003.056258) can0 333#331E000000000000
(1700000003.057635) can0 110#10BF000000000000
(1700000003.058442) can0 0B0#B032010000000000
(1700000003.059105) can0 224#244C000000000000
(1700000003.064933) can0 185#8578000000000000
(1700000003.068762) can0 0B0#B033010000000000
(1700000003.072668) can0 110#10C0000000000000
(1700000003.079551) can0 0B0#B034010000000000
(1700000003.088374) can0 110#10C1000000000000
(1700000003.089765) can0 0B0#B035010000000000
(1700000003.091770) can0 185#8579000000000000
(1700000003.095588) can0 2A9#A930000000000000
(1700000003.100378) can0 0B0#B036010000000000
(1700000003.102819) can0 224#244D000000000000
(1700000003.103846) can0 110#10C2000000000000
(1700000003.110496) can0 0B0#B037010000000000
(1700000003.117868) can0 185#857A000000000000
(1700000003.118860) can0 110#10C3000000000000
(1700000003.120565) can0 0B0#B038010000000000
(1700000003.130310) can0 0B0#B039010000000000
(1700000003.134531) can0 110#10C4000000000000
(1700000003.140945) can0 0B0#B03A010000000000
(1700000003.143692) can0 185#857B000000000000
(1700000003.144866) can0 224#244E000000000000
(1700000003.151718) can0 110#10C5000000000000
(1700000003.151791) can0 0B0#B03B010000000000
(1700000003.162421) can0 0B0#B03C010000000000
(1700000003.162618) can0 333#331F000000000000
(1700000003.164058) can0 2A9#A931000000000000
(1700000003.166902) can0 110#10C6000000000000
(1700000003.170547) can0 185#857C000000000000
(1700000003.171829) can0 0B0#B03D010000000000
(1700000003.181071) can0 224#244F000000000000
(1700000003.181346) can0 0B0#B03E010000000000
(1700000003.183807) can0 110#10C7000000000000
(1700000003.191656) can0 0B0#B03F010000000000
(1700000003.195296) can0 185#857D000000000000
(1700000003.200573) can0 110#10C8000000000000
(1700000003.200660) can0 0B0#B040010000000000
(1700000003.211297) can0 0B0#B041010000000000
(1700000003.217822) can0 110#10C9000000000000
(1700000003.220296) can0 224#2450000000000000
(1700000003.221408) can0 0B0#B042010000000000
(1700000003.221959) can0 185#857E000000000000
(1700000003.223497) can0 2A9#A932000000000000
(1700000003.230930) can0 0B0#B043010000000000
(1700000003.233589) can0 110#10CA000000000000
(1700000003.235693) can0 185#857F000000000000
(1700000003.240606) can0 0B0#B044010000000000
(1700000003.247609) can0 185#8580000000000000
(1700000003.249171) can0 110#10CB000000000000
(1700000003.250856) can0 0B0#B045010000000000
(1700000003.260819) can0 0B0#B046010000000000
(1700000003.261159) can0 185#8581000000000000
(1700000003.263760) can0 224#2451000000000000
(1700000003.264150) can0 333#3320000000000000
(1700000003.265370) can0 110#10CC000000000000
(1700000003.269839) can0 0B0#B047010000000000
(1700000003.274405) can0 185#8582000000000000
(1700000003.280062) can0 0B0#B048010000000000
(1700000003.281113) can0 110#10CD000000000000
(1700000003.285489) can0 2A9#A933000000000000
(1700000003.286306) can0 185#8583000000000000
(1700000003.289958) can0 0B0#B049010000000000
(1700000003.296953) can0 110#10CE000000000000
(1700000003.298419) can0 185#8584000000000000
(1700000003.300044) can0 0B0#B04A010000000000
(1700000003.304335) can0 224#2452000000000000
(1700000003.310187) can0 185#8585000000000000
(1700000003.310370) can0 0B0#B04B010000000000
(1700000003.313207) can0 110#10CF000000000000
(1700000003.320855) can0 0B0#B04C010000000000
(1700000003.322653) can0 185#8586000000000000
(1700000003.329017) can0 110#10D0000000000000
(1700000003.331148) can0 0B0#B04D010000000000
(1700000003.334809) can0 185#8587000000000000
(1700000003.340413) can0 0B0#B04E010000000000
(1700000003.342201) can0 224#2453000000000000
(1700000003.345274) can0 110#10D1000000000000
(1700000003.346485) can0 185#8588000000000000
(1700000003.349873) can0 2A9#A934000000000000
(1700000003.349890) can0 0B0#B04F010000000000
(1700000003.358102) can0 185#8589000000000000
(1700000003.358913) can0 0B0#B050010000000000
(1700000003.361215) can0 110#10D2000000000000
(1700000003.368985) can0 0B0#B051010000000000
(1700000003.370839) can0 185#858A000000000000
(1700000003.371952) can0 333#3321000000000000
(1700000003.378277) can0 110#10D3000000000000
(1700000003.379146) can0 0B0#B052010000000000
(1700000003.384205) can0 185#858B000000000000
(1700000003.385902) can0 224#2454000000000000
(1700000003.389426) can0 0B0#B053010000000000
(1700000003.393497) can0 110#10D4000000000000
(1700000003.396340) can0 185#858C000000000000
(1700000003.399525) can0 0B0#B054010000000000
(1700000003.407998) can0 110#10D5000000000000
(1700000003.408113) can0 185#858D000000000000
(1700000003.409248) can0 0B0#B055010000000000
(1700000003.417610) can0 2A9#A935000000000000
(1700000003.419027) can0 0B0#B056010000000000
(1700000003.419421) can0 185#858E000000000000
(1700000003.423375) can0 110#10D6000000000000
(1700000003.426252) can0 224#2455000000000000
(1700000003.428647) can0 0B0#B057010000000000
(1700000003.432512) can0 185#858F000000000000
(1700000003.437947) can0 0B0#B058010000000000
(1700000003.439421) can0 110#10D7000000000000
(1700000003.445893) can0 185#8590000000000000
(1700000003.447060) can0 0B0#B059010000000000
(1700000003.455272) can0 110#10D8000000000000
(1700000003.457240) can0 0B0#B05A010000000000
(1700000003.459332) can0 185#8591000000000000
(1700000003.464010) can0 224#2456000000000000
(1700000003.466523) can0 0B0#B05B010000000000
(1700000003.470752) can0 110#10D9000000000000
(1700000003.472081) can0 185#8592000000000000
(1700000003.475727) can0 333#3322000000000000
(1700000003.476077) can0 0B0#B05C010000000000
(1700000003.479594) can0 2A9#A936000000000000
(1700000003.483617) can0 185#8593000000000000
(1700000003.485527) can0 0B0#B05D010000000000
(1700000003.487291) can0 110#10DA000000000000
(1700000003.495032) can0 0B0#B05E010000000000
(1700000003.497303) can0 185#8594000000000000
(1700000003.502974) can0 110#10DB000000000000
(1700000003.503184) can0 224#2457000000000000
(1700000003.505909) can0 0B0#B05F010000000000
(1700000003.508951) can0 185#8595000000000000
(1700000003.516878) can0 0B0#B060010000000000
(1700000003.520021) can0 110#10DC000000000000
(1700000003.521304) can0 185#8596000000000000
(1700000003.526452) can0 0B0#B061010000000000
(1700000003.534354) can0 185#8597000000000000
(1700000003.534459) can0 110#10DD000000000000
(1700000003.537047) can0 0B0#B062010000000000
(1700000003.539732) can0 224#2458000000000000
(1700000003.545343) can0 2A9#A937000000000000
(1700000003.546686) can0 185#8598000000000000
(1700000003.546769) can0 0B0#B063010000000000
(1700000003.550356) can0 110#10DE000000000000
(1700000003.556153) can0 0B0#B064010000000000
(1700000003.559006) can0 185#8599000000000000
(1700000003.565448) can0 110#10DF000000000000
(1700000003.566342) can0 0B0#B065010000000000
(1700000003.567490) can0 333#3323000000000000
(1700000003.571875) can0 185#859A000000000000
(1700000003.575634) can0 224#2459000000000000
(1700000003.576450) can0 0B0#B066010000000000
(1700000003.581843) can0 110#10E0000000000000
(1700000003.584245) can0 185#859B000000000000
(1700000003.586740) can0 0B0#B067010000000000
(1700000003.596559) can0 185#859C000000000000
(1700000003.597739) can0 0B0#B068010000000000
(1700000003.598686) can0 110#10E1000000000000
(1700000003.604822) can0 2A9#A938000000000000
(1700000003.607933) can0 185#859D000000000000
(1700000003.608643) can0 0B0#B069010000000000
(1700000003.611990) can0 224#245A000000000000
(1700000003.615135) can0 110#10E2000000000000
(1700000003.618664) can0 0B0#B06A010000000000
(1700000003.621146) can0 185#859E000000000000
(1700000003.628524) can0 0B0#B06B010000000000
(1700000003.631293) can0 110#10E3000000000000
(1700000003.634261) can0 185#859F000000000000
(1700000003.637856) can0 0B0#B06C010000000000
(1700000003.646343) can0 110#10E4000000000000
(1700000003.646639) can0 185#85A0000000000000
(1700000003.648440) can0 0B0#B06D010000000000
(1700000003.648480) can0 224#245B000000000000
(1700000003.659168) can0 0B0#B06E010000000000
(1700000003.659234) can0 185#85A1000000000000
(1700000003.662333) can0 110#10E5000000000000
(1700000003.663748) can0 2A9#A939000000000000
(1700000003.664463) can0 333#3324000000000000
(1700000003.669711) can0 0B0#B06F010000000000
(1700000003.671616) can0 185#85A2000000000000
(1700000003.677827) can0 110#10E6000000000000
(1700000003.680618) can0 0B0#B070010000000000
(1700000003.683290) can0 185#85A3000000000000
(1700000003.686262) can0 224#245C000000000000
(1700000003.690951) can0 0B0#B071010000000000
(1700000003.693154) can0 110#10E7000000000000
(1700000003.696341) can0 185#85A4000000000000
(1700000003.700706) can0 0B0#B072010000000000
(1700000003.709258) can0 110#10E8000000000000
(1700000003.710102) can0 185#85A5000000000000
(1700000003.710270) can0 0B0#B073010000000000
(1700000003.719640) can0 0B0#B074010000000000
(1700000003.722496) can0 185#85A6000000000000
(1700000003.722633) can0 224#245D000000000000
(1700000003.724335) can0 110#10E9000000000000
(1700000003.724369) can0 2A9#A93A000000000000
(1700000003.729642) can0 0B0#B075010000000000
(1700000003.734517) can0 185#85A7000000000000
(1700000003.740415) can0 0B0#B076010000000000
(1700000003.741020) can0 110#10EA000000000000
(1700000003.747549) can0 185#85A8000000000000
(1700000003.750788) can0 0B0#B077010000000000
(1700000003.755792) can0 333#3325000000000000
(1700000003.758151) can0 110#10EB000000000000
(1700000003.760590) can0 185#85A9000000000000
(1700000003.760604) can0 0B0#B078010000000000
(1700000003.764765) can0 224#245E000000000000
(1700000003.770555) can0 0B0#B079010000000000
(1700000003.772230) can0 185#85AA000000000000
(1700000003.774138) can0 110#10EC000000000000
(1700000003.779642) can0 0B0#B07A010000000000
(1700000003.782865) can0 2A9#A93B000000000000
(1700000003.785321) can0 185#85AB000000000000
(1700000003.790583) can0 0B0#B07B010000000000
(1700000003.791510) can0 110#10ED000000000000
(1700000003.796909) can0 185#85AC000000000000
(1700000003.800486) can0 0B0#B07C010000000000
(1700000003.802936) can0 224#245F000000000000
(1700000003.805830) can0 110#10EE000000000000
(1700000003.808638) can0 185#85AD000000000000
(1700000003.810067) can0 0B0#B07D010000000000
(1700000003.820546) can0 0B0#B07E010000000000
(1700000003.821388) can0 185#85AE000000000000
(1700000003.821438) can0 110#10EF000000000000
(1700000003.830404) can0 0B0#B07F010000000000
(1700000003.833831) can0 185#85AF000000000000
(1700000003.836551) can0 110#10F0000000000000
(1700000003.839885) can0 224#2460000000000000
(1700000003.841388) can0 0B0#B080010000000000
(1700000003.846210) can0 185#85B0000000000000
(1700000003.848903) can0 2A9#A93C000000000000
(1700000003.850413) can0 333#3326000000000000
(1700000003.851252) can0 0B0#B081010000000000
(1700000003.851342) can0 110#10F1000000000000
(1700000003.858592) can0 185#85B1000000000000
(1700000003.861083) can0 0B0#B082010000000000
(1700000003.867464) can0 110#10F2000000000000
(1700000003.869959) can0 185#85B2000000000000
(1700000003.871355) can0 0B0#B083010000000000
(1700000003.881626) can0 185#85B3000000000000
(1700000003.882239) can0 0B0#B084010000000000
(1700000003.882979) can0 224#2461000000000000
(1700000003.884004) can0 110#10F3000000000000
(1700000003.892239) can0 0B0#B085010000000000
(1700000003.894770) can0 185#85B4000000000000
(1700000003.899069) can0 110#10F4000000000000
(1700000003.903158) can0 0B0#B086010000000000
(1700000003.907778) can0 185#85B5000000000000
(1700000003.909017) can0 2A9#A93D000000000000
(1700000003.912575) can0 0B0#B087010000000000
(1700000003.915919) can0 110#10F5000000000000
(1700000003.919674) can0 185#85B6000000000000
(1700000003.921590) can0 0B0#B088010000000000
(1700000003.925237) can0 224#2462000000000000
(1700000003.931052) can0 185#85B7000000000000
(1700000003.931438) can0 0B0#B089010000000000
(1700000003.932353) can0 110#10F6000000000000
(1700000003.940769) can0 0B0#B08A010000000000
(1700000003.942713) can0 185#85B8000000000000
(1700000003.948449) can0 110#10F7000000000000
(1700000003.950733) can0 0B0#B08B010000000000
(1700000003.956286) can0 185#85B9000000000000
(1700000003.957212) can0 333#3327000000000000
(1700000003.960983) can0 0B0#B08C010000000000
(1700000003.962867) can0 224#2463000000000000
(1700000003.963571) can0 110#10F8000000000000
(1700000003.969417) can0 185#85BA000000000000
(1700000003.971798) can0 0B0#B08D010000000000
(1700000003.976565) can0 2A9#A93E000000000000
(1700000003.980666) can0 110#10F9000000000000
(1700000003.982527) can0 0B0#B08E010000000000
(1700000003.982998) can0 185#85BB000000000000
(1700000003.991587) can0 0B0#B08F010000000000
(1700000003.994343) can0 185#85BC000000000000
(1700000003.995643) can0 110#10FA000000000000
(1700000004.000961) can0 0B0#B090010000000000
(1700000004.001719) can0 224#2464000000000000
(1700000004.005898) can0 185#85BD000000000000
(1700000004.010277) can0 110#10FB000000000000
(1700000004.011933) can0 0B0#B091010000000000
(1700000004.018406) can0 185#85BE000000000000
(1700000004.022102) can0 0B0#B092010000000000
(1700000004.025440) can0 110#10FC000000000000
(1700000004.030539) can0 185#85BF000000000000
(1700000004.031672) can0 0B0#B093010000000000
(1700000004.037358) can0 2A9#A93F000000000000
(1700000004.039303) can0 224#2465000000000000
(1700000004.040470) can0 110#10FD000000000000
(1700000004.042041) can0 185#85C0000000000000
(1700000004.042332) can0 0B0#B094010000000000
(1700000004.052095) can0 333#3328000000000000
(1700000004.052776) can0 0B0#B095010000000000
(1700000004.053368) can0 185#85C1000000000000
(1700000004.055582) can0 110#10FE000000000000
(1700000004.063263) can0 0B0#B096010000000000
(1700000004.065492) can0 185#85C2000000000000
(1700000004.072329) can0 110#10FF000000000000
(1700000004.073877) can0 0B0#B097010000000000
(1700000004.078454) can0 185#85C3000000000000
(1700000004.078899) can0 224#2466000000000000
(1700000004.084292) can0 0B0#B098010000000000
(1700000004.087356) can0 110#1000010000000000
(1700000004.091063) can0 185#85C4000000000000
(1700000004.093974) can0 0B0#B099010000000000
(1700000004.103104) can0 2A9#A940000000000000
(1700000004.103508) can0 0B0#B09A010000000000
(1700000004.103611) can0 185#85C5000000000000
(1700000004.104117) can0 110#1001010000000000
(1700000004.113835) can0 0B0#B09B010000000000
(1700000004.115653) can0 185#85C6000000000000
(1700000004.116753) can0 224#2467000000000000
(1700000004.121521) can0 110#1002010000000000
(1700000004.123640) can0 0B0#B09C010000000000
(1700000004.129331) can0 185#85C7000000000000
(1700000004.134615) can0 0B0#B09D010000000000
(1700000004.135942) can0 110#1003010000000000
(1700000004.142282) can0 185#85C8000000000000
(1700000004.144362) can0 0B0#B09E010000000000
(1700000004.153046) can0 333#3329000000000000
(1700000004.153200) can0 110#1004010000000000
(1700000004.154626) can0 0B0#B09F010000000000
(1700000004.155184) can0 185#85C9000000000000
(1700000004.160481) can0 224#2468000000000000
(1700000004.165177) can0 0B0#B0A0010000000000
(1700000004.165437) can0 2A9#A941000000000000
(1700000004.166571) can0 185#85CA000000000000
(1700000004.169433) can0 110#1005010000000000
(1700000004.175812) can0 0B0#B0A1010000000000
(1700000004.178602) can0 185#85CB000000000000
(1700000004.183931) can0 110#1006010000000000
(1700000004.185028) can0 0B0#B0A2010000000000
(1700000004.191250) can0 185#85CC000000000000
(1700000004.195256) can0 0B0#B0A3010000000000
(1700000004.200432) can0 110#1007010000000000
(1700000004.202424) can0 224#2469000000000000
(1700000004.203584) can0 185#85CD000000000000
(1700000004.205032) can0 0B0#B0A4010000000000
(1700000004.215004) can0 0B0#B0A5010000000000
(1700000004.215140) can0 185#85CE000000000000
(1700000004.216337) can0 110#1008010000000000
(1700000004.224018) can0 0B0#B0A6010000000000
(1700000004.228889) can0 185#85CF000000000000
(1700000004.230641) can0 2A9#A942000000000000
(1700000004.230857) can0 110#1009010000000000
(1700000004.234593) can0 0B0#B0A7010000000000
(1700000004.242193) can0 185#85D0000000000000
(1700000004.243635) can0 0B0#B0A8010000000000
(1700000004.244327) can0 224#246A000000000000
(1700000004.246613) can0 110#100A010000000000
(1700000004.252738) can0 0B0#B0A9010000000000
(1700000004.255384) can0 185#85D1000000000000
(1700000004.258284) can0 333#332A000000000000
(1700000004.261057) can0 110#100B010000000000
(1700000004.262152) can0 0B0#B0AA010000000000
(1700000004.267709) can0 185#85D2000000000000
(1700000004.273000) can0 0B0#B0AB010000000000
(1700000004.278362) can0 110#100C010000000000
(1700000004.279753) can0 185#85D3000000000000
(1700000004.283475) can0 0B0#B0AC010000000000
(1700000004.286725) can0 224#246B000000000000
(1700000004.291970) can0 185#85D4000000000000
(1700000004.293264) can0 0B0#B0AD010000000000
(1700000004.295332) can0 110#100D010000000000
(1700000004.297069) can0 2A9#A943000000000000
(1700000004.303628) can0 0B0#B0AE010000000000
(1700000004.305594) can0 185#85D5000000000000
(1700000004.310758) can0 110#100E010000000000
(1700000004.312925) can0 0B0#B0AF010000000000
(1700000004.317492) can0 185#85D6000000000000
(1700000004.323419) can0 0B0#B0B0010000000000
(1700000004.326900) can0 110#100F010000000000
(1700000004.328970) can0 224#246C000000000000
(1700000004.330370) can0 185#85D7000000000000
(1700000004.333978) can0 0B0#B0B1010000000000
(1700000004.341821) can0 110#1010010000000000
(1700000004.342597) can0 185#85D8000000000000
(1700000004.343606) can0 0B0#B0B2010000000000
(1700000004.350101) can0 333#332B000000000000
(1700000004.353913) can0 0B0#B0B3010000000000
(1700000004.354406) can0 185#85D9000000000000
(1700000004.356343) can0 2A9#A944000000000000
(1700000004.357966) can0 110#1011010000000000
(1700000004.363222) can0 0B0#B0B4010000000000
(1700000004.365851) can0 185#85DA000000000000
(1700000004.368178) can0 224#246D000000000000
(1700000004.373162) can0 0B0#B0B5010000000000
(1700000004.375039) can0 110#1012010000000000
(1700000004.379457) can0 185#85DB000000000000
(1700000004.382738) can0 0B0#B0B6010000000000
(1700000004.392422) can0 110#1013010000000000
(1700000004.393092) can0 185#85DC000000000000
(1700000004.393588) can0 0B0#B0B7010000000000
(1700000004.403660) can0 0B0#B0B8010000000000
(1700000004.405768) can0 185#85DD000000000000
(1700000004.406990) can0 110#1014010000000000
(1700000004.410003) can0 224#246E000000000000
(1700000004.413481) can0 0B0#B0B9010000000000
(1700000004.417323) can0 2A9#A945000000000000
(1700000004.417574) can0 185#85DE000000000000
(1700000004.421929) can0 110#1015010000000000
(1700000004.424451) can0 0B0#B0BA010000000000
(1700000004.429386) can0 185#85DF000000000000
(1700000004.434106) can0 0B0#B0BB010000000000
(1700000004.437529) can0 110#1016010000000000
(1700000004.442803) can0 185#85E0000000000000
(1700000004.443569) can0 0B0#B0BC010000000000
(1700000004.449841) can0 333#332C000000000000
(1700000004.450509) can0 224#246F000000000000
(1700000004.452811) can0 0B0#B0BD010000000000
(1700000004.453175) can0 110#1017010000000000
(1700000004.454321) can0 185#85E1000000000000
(1700000004.463207) can0 0B0#B0BE010000000000
(1700000004.467887) can0 185#85E2000000000000
(1700000004.469722) can0 110#1018010000000000
(1700000004.473221) can0 0B0#B0BF010000000000
(1700000004.474331) can0 2A9#A946000000000000
(1700000004.480122) can0 185#85E3000000000000
(1700000004.483252) can0 0B0#B0C0010000000000
(1700000004.484766) can0 110#1019010000000000
(1700000004.492595) can0 224#2470000000000000
(1700000004.492747) can0 185#85E4000000000000
(1700000004.493327) can0 0B0#B0C1010000000000
(1700000004.501743) can0 110#101A010000000000
(1700000004.503732) can0 0B0#B0C2010000000000
(1700000004.506487) can0 185#85E5000000000000
(1700000004.512789) can0 0B0#B0C3010000000000
(1700000004.517948) can0 110#101B010000000000
(1700000004.520091) can0 185#85E6000000000000
(1700000004.522714) can0 0B0#B0C4010000000000
(1700000004.531682) can0 185#85E7000000000000
(1700000004.533025) can0 224#2471000000000000
(1700000004.533582) can0 110#101C010000000000
(1700000004.533589) can0 0B0#B0C5010000000000
(1700000004.534510) can0 2A9#A947000000000000
(1700000004.542894) can0 0B0#B0C6010000000000
(1700000004.544263) can0 185#85E8000000000000
(1700000004.548142) can0 110#101D010000000000
(1700000004.551536) can0 333#332D000000000000
(1700000004.553402) can0 0B0#B0C7010000000000
(1700000004.557483) can0 185#85E9000000000000
(1700000004.562657) can0 0B0#B0C8010000000000
(1700000004.565073) can0 110#101E010000000000
(1700000004.570061) can0 185#85EA000000000000
(1700000004.571962) can0 0B0#B0C9010000000000
(1700000004.573010) can0 224#2472000000000000
(1700000004.580328) can0 110#101F010000000000
(1700000004.582286) can0 0B0#B0CA010000000000
(1700000004.582675) can0 185#85EB000000000000
(1700000004.592885) can0 0B0#B0CB010000000000
(1700000004.595199) can0 185#85EC000000000000
(1700000004.595739) can0 110#1020010000000000
(1700000004.596034) can0 2A9#A948000000000000
(1700000004.602114) can0 0B0#B0CC010000000000
(1700000004.607014) can0 185#85ED000000000000
(1700000004.611296) can0 0B0#B0CD010000000000
(1700000004.611456) can0 110#1021010000000000
(1700000004.614623) can0 224#2473000000000000
(1700000004.618375) can0 185#85EE000000000000
(1700000004.621648) can0 0B0#B0CE010000000000
(1700000004.628784) can0 110#1022010000000000
(1700000004.630934) can0 0B0#B0CF010000000000
(1700000004.631460) can0 185#85EF000000000000
(1700000004.641516) can0 0B0#B0D0010000000000
(1700000004.643815) can0 185#85F0000000000000
(1700000004.645146) can0 110#1023010000000000
(1700000004.651471) can0 0B0#B0D1010000000000
(1700000004.651729) can0 333#332E000000000000
(1700000004.652696) can0 224#2474000000000000
(1700000004.657019) can0 185#85F1000000000000
(1700000004.660673) can0 0B0#B0D2010000000000
(1700000004.662557) can0 110#1024010000000000
(1700000004.664742) can0 2A9#A949000000000000
(1700000004.668398) can0 185#85F2000000000000
(1700000004.671078) can0 0B0#B0D3010000000000
(1700000004.679436) can0 110#1025010000000000
(1700000004.679761) can0 185#85F3000000000000
(1700000004.680895) can0 0B0#B0D4010000000000
(1700000004.690607) can0 224#2475000000000000
(1700000004.691473) can0 185#85F4000000000000
(1700000004.691837) can0 0B0#B0D5010000000000
(1700000004.694232) can0 110#1026010000000000
(1700000004.700909) can0 0B0#B0D6010000000000
(1700000004.704095) can0 185#85F5000000000000
(1700000004.709534) can0 110#1027010000000000
(1700000004.709975) can0 0B0#B0D7010000000000
(1700000004.715814) can0 185#85F6000000000000
(1700000004.720845) can0 0B0#B0D8010000000000
(1700000004.726707) can0 110#1028010000000000
(1700000004.728127) can0 185#85F7000000000000
(1700000004.730434) can0 0B0#B0D9010000000000
(1700000004.731738) can0 224#2476000000000000
(1700000004.732652) can0 2A9#A94A000000000000
(1700000004.739490) can0 185#85F8000000000000
(1700000004.740352) can0 0B0#B0DA010000000000
(1700000004.742081) can0 110#1029010000000000
(1700000004.750873) can0 0B0#B0DB010000000000
(1700000004.751904) can0 185#85F9000000000000
(1700000004.754042) can0 333#332F000000000000
(1700000004.758219) can0 110#102A010000000000
(1700000004.761442) can0 0B0#B0DC010000000000
(1700000004.764348) can0 185#85FA000000000000
(1700000004.769846) can0 224#2477000000000000
(1700000004.772096) can0 0B0#B0DD010000000000
(1700000004.774108) can0 110#102B010000000000
(1700000004.776472) can0 185#85FB000000000000
(1700000004.781781) can0 0B0#B0DE010000000000
(1700000004.788203) can0 185#85FC000000000000
(1700000004.789576) can0 110#102C010000000000
(1700000004.791392) can0 0B0#B0DF010000000000
(1700000004.795639) can0 2A9#A94B000000000000
(1700000004.799700) can0 185#85FD000000000000
(1700000004.801827) can0 0B0#B0E0010000000000
(1700000004.806967) can0 110#102D010000000000
(1700000004.811511) can0 185#85FE000000000000
(1700000004.812081) can0 224#2478000000000000
(1700000004.812820) can0 0B0#B0E1010000000000
(1700000004.823802) can0 0B0#B0E2010000000000
(1700000004.823995) can0 110#102E010000000000
(1700000004.824749) can0 185#85FF000000000000
(1700000004.833096) can0 0B0#B0E3010000000000
(1700000004.837125) can0 185#8500010000000000
(1700000004.838686) can0 110#102F010000000000
(1700000004.843631) can0 0B0#B0E4010000000000
(1700000004.849746) can0 185#8501010000000000
(1700000004.850006) can0 224#2479000000000000
(1700000004.853197) can0 0B0#B0E5010000000000
(1700000004.853780) can0 110#1030010000000000
(1700000004.858928) can0 333#3330000000000000
(1700000004.861706) can0 2A9#A94C000000000000
(1700000004.862672) can0 0B0#B0E6010000000000
(1700000004.862922) can0 185#8502010000000000
(1700000004.868234) can0 110#1031010000000000
(1700000004.872869) can0 0B0#B0E7010000000000
(1700000004.876375) can0 185#8503010000000000
(1700000004.882711) can0 110#1032010000000000
(1700000004.882733) can0 0B0#B0E8010000000000
(1700000004.889631) can0 185#8504010000000000
(1700000004.891514) can0 224#247A000000000000
(1700000004.892357) can0 0B0#B0E9010000000000
(1700000004.897434) can0 110#1033010000000000
(1700000004.901728) can0 185#8505010000000000
(1700000004.902033) can0 0B0#B0EA010000000000
(1700000004.912480) can0 0B0#B0EB010000000000
(1700000004.912856) can0 110#1034010000000000
(1700000004.914712) can0 185#8506010000000000
(1700000004.919939) can0 2A9#A94D000000000000
(1700000004.921746) can0 0B0#B0EC010000000000
(1700000004.926988) can0 185#8507010000000000
(1700000004.928086) can0 110#1035010000000000
(1700000004.929044) can0 224#247B000000000000
(1700000004.931416) can0 0B0#B0ED010000000000
(1700000004.938593) can0 185#8508010000000000
(1700000004.942376) can0 0B0#B0EE010000000000
(1700000004.943256) can0 110#1036010000000000
(1700000004.950397) can0 185#8509010000000000
(1700000004.952098) can0 0B0#B0EF010000000000
(1700000004.957668) can0 110#1037010000000000
(1700000004.960695) can0 333#3331000000000000
(1700000004.961135) can0 0B0#B0F0010000000000
(1700000004.962296) can0 185#850A010000000000
(1700000004.965749) can0 224#247C000000000000
(1700000004.970930) can0 0B0#B0F1010000000000
(1700000004.975094) can0 110#1038010000000000
(1700000004.975947) can0 185#850B010000000000
(1700000004.976996) can0 2A9#A94E000000000000
(1700000004.979969) can0 0B0#B0F2010000000000
(1700000004.988070) can0 185#850C010000000000
(1700000004.990222) can0 110#1039010000000000
(1700000004.990233) can0 0B0#B0F3010000000000
(1700000005.000353) can0 0B0#B0F4010000000000
(1700000005.001593) can0 185#850D010000000000
(1700000005.004976) can0 110#103A010000000000
(1700000005.005973) can0 224#247D000000000000
(1700000005.009934) can0 0B0#B0F5010000000000
(1700000005.014784) can0 185#850E010000000000
(1700000005.020182) can0 110#103B010000000000
(1700000005.020247) can0 0B0#B0F6010000000000
(1700000005.027998) can0 185#850F010000000000
(1700000005.031163) can0 0B0#B0F7010000000000
(1700000005.035989) can0 110#103C010000000000
(1700000005.040167) can0 0B0#B0F8010000000000
(1700000005.041469) can0 185#8510010000000000
(1700000005.044257) can0 224#247E000000000000
(1700000005.046384) can0 2A9#A94F000000000000
(1700000005.049932) can0 0B0#B0F9010000000000
(1700000005.052779) can0 110#103D010000000000
(1700000005.054953) can0 185#8511010000000000
(1700000005.058948) can0 0B0#B0FA010000000000
(1700000005.060769) can0 333#3332000000000000
(1700000005.067438) can0 185#8512010000000000
(1700000005.069033) can0 110#103E010000000000
(1700000005.069734) can0 0B0#B0FB010000000000
(1700000005.079515) can0 185#8513010000000000
(1700000005.080073) can0 0B0#B0FC010000000000
(1700000005.080697) can0 224#247F000000000000
(1700000005.085037) can0 110#103F010000000000
(1700000005.089976) can0 0B0#B0FD010000000000
(1700000005.092621) can0 185#8514010000000000
(1700000005.100230) can0 0B0#B0FE010000000000
(1700000005.100815) can0 110#1040010000000000
(1700000005.106092) can0 185#8515010000000000
(1700000005.108956) can0 2A9#A950000000000000
(1700000005.109268) can0 0B0#B0FF010000000000
(1700000005.115102) can0 110#1041010000000000
(1700000005.118299) can0 185#8516010000000000
(1700000005.119177) can0 0B0#B000020000000000
(1700000005.121236) can0 224#2480000000000000
(1700000005.129436) can0 0B0#B001020000000000
(1700000005.129623) can0 185#8517010000000000
(1700000005.132069) can0 110#1042010000000000
(1700000005.138543) can0 0B0#B002020000000000
(1700000005.142010) can0 185#8518010000000000
(1700000005.148421) can0 0B0#B003020000000000
(1700000005.148449) can0 110#1043010000000000
(1700000005.151002) can0 333#3333000000000000
(1700000005.155255) can0 185#8519010000000000
(1700000005.158328) can0 0B0#B004020000000000
(1700000005.163089) can0 110#1044010000000000
(1700000005.163434) can0 224#2481000000000000
(1700000005.166529) can0 2A9#A951000000000000
(1700000005.168851) can0 185#851A010000000000
(1700000005.168992) can0 0B0#B005020000000000
(1700000005.178438) can0 110#1045010000000000
(1700000005.179445) can0 0B0#B006020000000000
(1700000005.182443) can0 185#851B010000000000
(1700000005.190305) can0 0B0#B007020000000000
(1700000005.193012) can0 110#1046010000000000
(1700000005.193827) can0 185#851C010000000000
(1700000005.200818) can0 0B0#B008020000000000
(1700000005.203367) can0 224#2482000000000000
(1700000005.205209) can0 185#851D010000000000
(1700000005.207530) can0 110#1047010000000000
(1700000005.210824) can0 0B0#B009020000000000
(1700000005.217498) can0 185#851E010000000000
(1700000005.220779) can0 0B0#B00A020000000000
(1700000005.221817) can0 110#1048010000000000
(1700000005.228428) can0 2A9#A952000000000000
(1700000005.229852) can0 185#851F010000000000
(1700000005.231605) can0 0B0#B00B020000000000
(1700000005.238681) can0 110#1049010000000000
(1700000005.240389) can0 224#2483000000000000
(1700000005.240605) can0 0B0#B00C020000000000
(1700000005.243367) can0 185#8520010000000000
(1700000005.246984) can0 333#3334000000000000
(1700000005.249850) can0 0B0#B00D020000000000
(1700000005.253101) can0 110#104A010000000000
(1700000005.255568) can0 185#8521010000000000
(1700000005.260332) can0 0B0#B00E020000000000
(1700000005.268617) can0 185#8522010000000000
(1700000005.268984) can0 110#104B010000000000
(1700000005.271278) can0 0B0#B00F020000000000
(1700000005.280397) can0 185#8523010000000000
(1700000005.280839) can0 0B0#B010020000000000
(1700000005.281312) can0 224#2484000000000000
(1700000005.286141) can0 110#104C010000000000
(1700000005.290286) can0 0B0#B011020000000000
(1700000005.291965) can0 2A9#A953000000000000
(1700000005.293568) can0 185#8524010000000000
(1700000005.299450) can0 0B0#B012020000000000
(1700000005.301986) can0 110#104D010000000000
(1700000005.306615) can0 185#8525010000000000
(1700000005.308716) can0 0B0#B013020000000000
(1700000005.316601) can0 110#104E010000000000
(1700000005.317816) can0 0B0#B014020000000000
(1700000005.319843) can0 185#8526010000000000
(1700000005.322825) can0 224#2485000000000000
(1700000005.328391) can0 0B0#B015020000000000
(1700000005.331888) can0 185#8527010000000000
(1700000005.332712) can0 110#104F010000000000
(1700000005.339079) can0 0B0#B016020000000000
(1700000005.343218) can0 333#3335000000000000
(1700000005.344179) can0 185#8528010000000000
(1700000005.349450) can0 110#1050010000000000
(1700000005.349511) can0 0B0#B017020000000000
(1700000005.356992) can0 185#8529010000000000
(1700000005.358636) can0 0B0#B018020000000000
(1700000005.359121) can0 224#2486000000000000
(1700000005.359373) can0 2A9#A954000000000000
(1700000005.364515) can0 110#1051010000000000
(1700000005.368319) can0 185#852A010000000000
(1700000005.369327) can0 0B0#B019020000000000
(1700000005.380220) can0 0B0#B01A020000000000
(1700000005.381636) can0 110#1052010000000000
(1700000005.382075) can0 185#852B010000000000
(1700000005.389404) can0 0B0#B01B020000000000
(1700000005.395476) can0 185#852C010000000000
(1700000005.398017) can0 224#2487000000000000
(1700000005.398129) can0 110#1053010000000000
(1700000005.399605) can0 0B0#B01C020000000000
(1700000005.408092) can0 185#852D010000000000
(1700000005.408784) can0 0B0#B01D020000000000
(1700000005.413927) can0 110#1054010000000000
(1700000005.418699) can0 0B0#B01E020000000000
(1700000005.421144) can0 185#852E010000000000
(1700000005.425237) can0 2A9#A955000000000000
(1700000005.428057) can0 0B0#B01F020000000000
(1700000005.428913) can0 110#1055010000000000
(1700000005.434528) can0 224#2488000000000000
(1700000005.434570) can0 185#852F010000000000
(1700000005.438032) can0 0B0#B020020000000000
(1700000005.444031) can0 333#3336000000000000
(1700000005.444557) can0 110#1056010000000000
(1700000005.447360) can0 0B0#B021020000000000
(1700000005.447517) can0 185#8530010000000000
(1700000005.456857) can0 0B0#B022020000000000
(1700000005.460791) can0 185#8531010000000000
(1700000005.461253) can0 110#1057010000000000
(1700000005.465860) can0 0B0#B023020000000000
(1700000005.473690) can0 185#8532010000000000
(1700000005.475599) can0 224#2489000000000000
(1700000005.476044) can0 0B0#B024020000000000
(1700000005.476478) can0 110#1058010000000000
(1700000005.484121) can0 2A9#A956000000000000
(1700000005.485048) can0 0B0#B025020000000000
(1700000005.486373) can0 185#8533010000000000
(1700000005.491880) can0 110#1059010000000000
(1700000005.494265) can0 0B0#B026020000000000
(1700000005.499699) can0 185#8534010000000000
(1700000005.504405) can0 0B0#B027020000000000
(1700000005.508667) can0 110#105A010000000000
(1700000005.512618) can0 224#248A000000000000
(1700000005.513092) can0 185#8535010000000000
(1700000005.515232) can0 0B0#B028020000000000
(1700000005.524610) can0 0B0#B029020000000000
(1700000005.524615) can0 110#105B010000000000
(1700000005.526149) can0 185#8536010000000000
(1700000005.535316) can0 0B0#B02A020000000000
(1700000005.539150) can0 185#8537010000000000
(1700000005.541184) can0 110#105C010000000000
(1700000005.544744) can0 0B0#B02B020000000000
(1700000005.545250) can0 2A9#A957000000000000
(1700000005.550699) can0 224#248B000000000000
(1700000005.551500) can0 185#8538010000000000
(1700000005.552924) can0 333#3337000000000000
(1700000005.554593) can0 0B0#B02C020000000000
(1700000005.557605) can0 110#105D010000000000
(1700000005.562915) can0 185#8539010000000000
(1700000005.564889) can0 0B0#B02D020000000000
(1700000005.573052) can0 110#105E010000000000
(1700000005.574686) can0 0B0#B02E020000000000
(1700000005.576117) can0 185#853A010000000000
(1700000005.584946) can0 0B0#B02F020000000000
(1700000005.587795) can0 185#853B010000000000
(1700000005.588035) can0 110#105F010000000000
(1700000005.593013) can0 224#248C000000000000
(1700000005.594475) can0 0B0#B030020000000000
(1700000005.601410) can0 185#853C010000000000
(1700000005.603809) can0 2A9#A958000000000000
(1700000005.604900) can0 0B0#B031020000000000
(1700000005.605312) can0 110#1060010000000000
(1700000005.614909) can0 0B0#B032020000000000
(1700000005.615012) can0 185#853D010000000000
(1700000005.622177) can0 110#1061010000000000
(1700000005.625807) can0 0B0#B033020000000000
(1700000005.628821) can0 185#853E010000000000
(1700000005.632082) can0 224#248D000000000000
(1700000005.635930) can0 0B0#B034020000000000
(1700000005.639331) can0 110#1062010000000000
(1700000005.641825) can0 185#853F010000000000
(1700000005.643481) can0 333#3338000000000000
(1700000005.645189) can0 0B0#B035020000000000
(1700000005.653743) can0 185#8540010000000000
(1700000005.654555) can0 0B0#B036020000000000
(1700000005.654597) can0 110#1063010000000000
(1700000005.664786) can0 0B0#B037020000000000
(1700000005.667259) can0 185#8541010000000000
(1700000005.668445) can0 2A9#A959000000000000
(1700000005.669373) can0 110#1064010000000000
(1700000005.673828) can0 224#248E000000000000
(1700000005.675484) can0 0B0#B038020000000000
(1700000005.680973) can0 185#8542010000000000
(1700000005.683972) can0 110#1065010000000000
(1700000005.686008) can0 0B0#B039020000000000
(1700000005.692724) can0 185#8543010000000000
(1700000005.696226) can0 0B0#B03A020000000000
(1700000005.700743) can0 110#1066010000000000
(1700000005.704620) can0 185#8544010000000000
(1700000005.705908) can0 0B0#B03B020000000000
(1700000005.712103) can0 224#248F000000000000
(1700000005.715106) can0 0B0#B03C020000000000
(1700000005.716444) can0 185#8545010000000000
(1700000005.717654) can0 110#1067010000000000
(1700000005.724978) can0 0B0#B03D020000000000
(1700000005.728018) can0 2A9#A95A000000000000
(1700000005.729912) can0 185#8546010000000000
(1700000005.732289) can0 110#1068010000000000
(1700000005.735102) can0 0B0#B03E020000000000
(1700000005.741190) can0 333#3339000000000000
(1700000005.742698) can0 185#8547010000000000
(1700000005.745417) can0 0B0#B03F020000000000
(1700000005.746741) can0 110#1069010000000000
(1700000005.754344) can0 224#2490000000000000
(1700000005.755370) can0 185#8548010000000000
(1700000005.755729) can0 0B0#B040020000000000
(1700000005.764094) can0 110#106A010000000000
(1700000005.765820) can0 0B0#B041020000000000
(1700000005.768980) can0 185#8549010000000000
(1700000005.775532) can0 0B0#B042020000000000
(1700000005.778699) can0 110#106B010000000000
(1700000005.780322) can0 185#854A010000000000
(1700000005.784589) can0 0B0#B043020000000000
(1700000005.792495) can0 2A9#A95B000000000000
(1700000005.792497) can0 185#854B010000000000
(1700000005.794733) can0 224#2491000000000000
(1700000005.795093) can0 0B0#B044020000000000
(1700000005.795452) can0 110#106C010000000000
(1700000005.805647) can0 0B0#B045020000000000
(1700000005.806301) can0 185#854C010000000000
(1700000005.811938) can0 110#106D010000000000
(1700000005.816240) can0 0B0#B046020000000000
(1700000005.817746) can0 185#854D010000000000
(1700000005.826227) can0 0B0#B047020000000000
(1700000005.827509) can0 110#106E010000000000
(1700000005.830918) can0 224#2492000000000000
(1700000005.831453) can0 185#854E010000000000
(1700000005.836303) can0 0B0#B048020000000000
(1700000005.841863) can0 110#106F010000000000
(1700000005.843122) can0 185#854F010000000000
(1700000005.843470) can0 333#333A000000000000
(1700000005.845566) can0 0B0#B049020000000000
(1700000005.854035) can0 2A9#A95C000000000000
(1700000005.855482) can0 0B0#B04A020000000000
(1700000005.856786) can0 185#8550010000000000
(1700000005.857729) can0 110#1070010000000000
(1700000005.866308) can0 0B0#B04B020000000000
(1700000005.868631) can0 224#2493000000000000
(1700000005.868903) can0 185#8551010000000000
(1700000005.872019) can0 110#1071010000000000
(1700000005.876287) can0 0B0#B04C020000000000
(1700000005.880315) can0 185#8552010000000000
(1700000005.886286) can0 0B0#B04D020000000000
(1700000005.886566) can0 110#1072010000000000
(1700000005.892829) can0 185#8553010000000000
(1700000005.895343) can0 0B0#B04E020000000000
(1700000005.902484) can0 110#1073010000000000
(1700000005.904652) can0 0B0#B04F020000000000
(1700000005.905851) can0 185#8554010000000000
(1700000005.910996) can0 224#2494000000000000
(1700000005.915107) can0 0B0#B050020000000000
(1700000005.915309) can0 2A9#A95D000000000000
(1700000005.917431) can0 185#8555010000000000
(1700000005.917605) can0 110#1074010000000000
(1700000005.924622) can0 0B0#B051020000000000
(1700000005.929133) can0 185#8556010000000000
(1700000005.933094) can0 110#1075010000000000
(1700000005.933837) can0 333#333B000000000000
(1700000005.933842) can0 0B0#B052020000000000
(1700000005.942647) can0 185#8557010000000000
(1700000005.942899) can0 0B0#B053020000000000
(1700000005.950388) can0 110#1076010000000000
(1700000005.952175) can0 0B0#B054020000000000
(1700000005.953041) can0 224#2495000000000000
(1700000005.955196) can0 185#8558010000000000
(1700000005.961890) can0 0B0#B055020000000000
(1700000005.966355) can0 110#1077010000000000
(1700000005.966760) can0 185#8559010000000000
(1700000005.971584) can0 0B0#B056020000000000
(1700000005.978744) can0 185#855A010000000000
(1700000005.980413) can0 2A9#A95E000000000000
(1700000005.981711) can0 110#1078010000000000
(1700000005.982307) can0 0B0#B057020000000000
(1700000005.990195) can0 185#855B010000000000
(1700000005.993191) can0 0B0#B058020000000000
(1700000005.995705) can0 224#2496000000000000
(1700000005.996589) can0 110#1079010000000000
(1700000006.002635) can0 0B0#B059020000000000
(1700000006.003028) can0 185#855C010000000000
(1700000006.012117) can0 0B0#B05A020000000000
(1700000006.012880) can0 110#107A010000000000
(1700000006.014995) can0 185#855D010000000000
(1700000006.022229) can0 0B0#B05B020000000000
(1700000006.026752) can0 185#855E010000000000
(1700000006.029742) can0 110#107B010000000000
(1700000006.031512) can0 0B0#B05C020000000000
(1700000006.033885) can0 333#333C000000000000
(1700000006.039154) can0 224#2497000000000000
(1700000006.040069) can0 185#855F010000000000
(1700000006.041651) can0 0B0#B05D020000000000
(1700000006.044417) can0 2A9#A95F000000000000
(1700000006.047109) can0 110#107C010000000000
(1700000006.051565) can0 0B0#B05E020000000000
(1700000006.052396) can0 185#8560010000000000
(1700000006.061582) can0 110#107D010000000000
(1700000006.062561) can0 0B0#B05F020000000000
(1700000006.064549) can0 185#8561010000000000
(1700000006.072521) can0 0B0#B060020000000000
(1700000006.078125) can0 185#8562010000000000
(1700000006.078604) can0 110#107E010000000000
(1700000006.079135) can0 224#2498000000000000
(1700000006.082721) can0 0B0#B061020000000000
(1700000006.091803) can0 185#8563010000000000
(1700000006.093595) can0 0B0#B062020000000000
(1700000006.095102) can0 110#107F010000000000
(1700000006.102260) can0 2A9#A960000000000000
(1700000006.104115) can0 185#8564010000000000
(1700000006.104407) can0 0B0#B063020000000000
(1700000006.110031) can0 110#1080010000000000
(1700000006.114615) can0 0B0#B064020000000000
(1700000006.117212) can0 185#8565010000000000
(1700000006.118030) can0 224#2499000000000000
(1700000006.123941) can0 0B0#B065020000000000
(1700000006.127120) can0 110#1081010000000000
(1700000006.129181) can0 185#8566010000000000
(1700000006.129913) can0 333#333D000000000000
(1700000006.133587) can0 0B0#B066020000000000
(1700000006.141388) can0 185#8567010000000000
(1700000006.142947) can0 0B0#B067020000000000
(1700000006.144388) can0 110#1082010000000000
(1700000006.153468) can0 0B0#B068020000000000
(1700000006.154819) can0 185#8568010000000000
(1700000006.158860) can0 110#1083010000000000
(1700000006.160218) can0 224#249A000000000000
(1700000006.162706) can0 0B0#B069020000000000
(1700000006.166403) can0 185#8569010000000000
(1700000006.171551) can0 2A9#A961000000000000
(1700000006.172905) can0 0B0#B06A020000000000
(1700000006.173945) can0 110#1084010000000000
(1700000006.179819) can0 185#856A010000000000
(1700000006.183359) can0 0B0#B06B020000000000
(1700000006.190261) can0 110#1085010000000000
(1700000006.192540) can0 185#856B010000000000
(1700000006.193159) can0 0B0#B06C020000000000
(1700000006.202232) can0 224#249B000000000000
(1700000006.202287) can0 0B0#B06D020000000000
(1700000006.203849) can0 185#856C010000000000
(1700000006.205152) can0 110#1086010000000000
(1700000006.213162) can0 0B0#B06E020000000000
(1700000006.217230) can0 185#856D010000000000
(1700000006.222033) can0 110#1087010000000000
(1700000006.223560) can0 0B0#B06F020000000000
(1700000006.228577) can0 185#856E010000000000
(1700000006.232715) can0 0B0#B070020000000000
(1700000006.236231) can0 333#333E000000000000
(1700000006.238134) can0 224#249C000000000000
(1700000006.238374) can0 110#1088010000000000
(1700000006.239993) can0 2A9#A962000000000000
(1700000006.241168) can0 185#856F010000000000
(1700000006.242400) can0 0B0#B071020000000000
(1700000006.252364) can0 0B0#B072020000000000
(1700000006.252947) can0 110#1089010000000000
(1700000006.254036) can0 185#8570010000000000
(1700000006.261909) can0 0B0#B073020000000000
(1700000006.265917) can0 185#8571010000000000
(1700000006.268051) can0 110#108A010000000000
(1700000006.272696) can0 0B0#B074020000000000
(1700000006.276849) can0 224#249D000000000000
(1700000006.277858) can0 185#8572010000000000
(1700000006.282488) can0 0B0#B075020000000000
(1700000006.284879) can0 110#108B010000000000
(1700000006.290111) can0 185#8573010000000000
(1700000006.292016) can0 0B0#B076020000000000
(1700000006.298569) can0 2A9#A963000000000000
(1700000006.299523) can0 110#108C010000000000
(1700000006.301378) can0 0B0#B077020000000000
(1700000006.302619) can0 185#8574010000000000
(1700000006.311811) can0 0B0#B078020000000000
(1700000006.315008) can0 185#8575010000000000
(1700000006.316519) can0 224#249E000000000000
(1700000006.316883) can0 110#108D010000000000
(1700000006.321233) can0 0B0#B079020000000000
(1700000006.328406) can0 185#8576010000000000
(1700000006.331040) can0 0B0#B07A020000000000
(1700000006.332148) can0 110#108E010000000000
(1700000006.333414) can0 333#333F000000000000
(1700000006.339883) can0 185#8577010000000000
(1700000006.340234) can0 0B0#B07B020000000000
(1700000006.347463) can0 110#108F010000000000
(1700000006.350721) can0 0B0#B07C020000000000
(1700000006.351291) can0 185#8578010000000000
(1700000006.358824) can0 224#249F000000000000
(1700000006.359843) can0 0B0#B07D020000000000
(1700000006.363433) can0 110#1090010000000000
(1700000006.364375) can0 2A9#A964000000000000
(1700000006.364943) can0 185#8579010000000000
(1700000006.369548) can0 0B0#B07E020000000000
(1700000006.377247) can0 185#857A010000000000
(1700000006.379434) can0 110#1091010000000000
(1700000006.380337) can0 0B0#B07F020000000000
(1700000006.388967) can0 185#857B010000000000
(1700000006.391247) can0 0B0#B080020000000000
(1700000006.395847) can0 110#1092010000000000
(1700000006.396324) can0 224#24A0000000000000
(1700000006.402139) can0 0B0#B081020000000000
(1700000006.402615) can0 185#857C010000000000
(1700000006.410220) can0 110#1093010000000000
(1700000006.413035) can0 0B0#B082020000000000
(1700000006.421745) can0 2A9#A965000000000000
(1700000006.423054) can0 0B0#B083020000000000
(1700000006.427068) can0 110#1094010000000000
(1700000006.427683) can0 185#857D010000000000
(1700000006.433730) can0 333#3340000000000000
(1700000006.433981) can0 0B0#B084020000000000
(1700000006.434305) can0 224#24A1000000000000
(1700000006.443161) can0 0B0#B085020000000000
(1700000006.443677) can0 110#1095010000000000
(1700000006.452665) can0 0B0#B086020000000000
(1700000006.455185) can0 185#857E010000000000
(1700000006.458615) can0 110#1096010000000000
(1700000006.462061) can0 0B0#B087020000000000
(1700000006.471942) can0 0B0#B088020000000000
(1700000006.473409) can0 110#1097010000000000
(1700000006.476938) can0 224#24A2000000000000
(1700000006.480789) can0 185#857F010000000000
(1700000006.481333) can0 0B0#B089020000000000
(1700000006.481891) can0 2A9#A966000000000000
(1700000006.489853) can0 110#1098010000000000
(1700000006.491752) can0 0B0#B08A020000000000
(1700000006.502224) can0 0B0#B08B020000000000
(1700000006.507030) can0 110#1099010000000000
(1700000006.508061) can0 185#8580010000000000
(1700000006.511655) can0 0B0#B08C020000000000
(1700000006.517077) can0 224#24A3000000000000
(1700000006.521217) can0 0B0#B08D020000000000
(1700000006.522088) can0 110#109A010000000000
(1700000006.530313) can0 333#3341000000000000
(1700000006.531713) can0 0B0#B08E020000000000
(1700000006.534607) can0 185#8581010000000000
(1700000006.536923) can0 110#109B010000000000
(1700000006.540156) can0 2A9#A967000000000000
(1700000006.540977) can0 0B0#B08F020000000000
(1700000006.551233) can0 0B0#B090020000000000
(1700000006.553231) can0 110#109C010000000000
(1700000006.558466) can0 224#24A4000000000000
(1700000006.560828) can0 0B0#B091020000000000
(1700000006.561458) can0 185#8582010000000000
(1700000006.570099) can0 110#109D010000000000
(1700000006.571267) can0 0B0#B092020000000000
(1700000006.580536) can0 0B0#B093020000000000
(1700000006.585417) can0 110#109E010000000000
(1700000006.588980) can0 185#8583010000000000
(1700000006.590339) can0 0B0#B094020000000000
(1700000006.597332) can0 224#24A5000000000000
(1700000006.598197) can0 2A9#A968000000000000
(1700000006.600774) can0 0B0#B095020000000000
(1700000006.601442) can0 110#109F010000000000
(1700000006.610630) can0 0B0#B096020000000000
(1700000006.614251) can0 185#8584010000000000
(1700000006.616552) can0 110#10A0010000000000
(1700000006.621617) can0 0B0#B097020000000000
(1700000006.622688) can0 333#3342000000000000
(1700000006.631016) can0 0B0#B098020000000000
(1700000006.632440) can0 110#10A1010000000000
(1700000006.634649) can0 224#24A6000000000000
(1700000006.639831) can0 185#8585010000000000
(1700000006.640534) can0 0B0#B099020000000000
(1700000006.646866) can0 110#10A2010000000000
(1700000006.649772) can0 0B0#B09A020000000000
(1700000006.659878) can0 0B0#B09B020000000000
(1700000006.663528) can0 110#10A3010000000000
(1700000006.665371) can0 2A9#A969000000000000
(1700000006.665991) can0 185#8586010000000000
(1700000006.668984) can0 0B0#B09C020000000000
(1700000006.675354) can0 224#24A7000000000000
(1700000006.678032) can0 0B0#B09D020000000000
(1700000006.678788) can0 110#10A4010000000000
(1700000006.687474) can0 0B0#B09E020000000000
(1700000006.689675) can0 185#8587010000000000
(1700000006.694559) can0 110#10A5010000000000
(1700000006.697324) can0 0B0#B09F020000000000
(1700000006.707155) can0 0B0#B0A0020000000000
(1700000006.708911) can0 110#10A6010000000000
(1700000006.714217) can0 185#8588010000000000
(1700000006.717545) can0 0B0#B0A1020000000000
(1700000006.718078) can0 224#24A8000000000000
(1700000006.724978) can0 110#10A7010000000000
(1700000006.727292) can0 0B0#B0A2020000000000
(1700000006.727828) can0 333#3343000000000000
(1700000006.733413) can0 2A9#A96A000000000000
(1700000006.736542) can0 0B0#B0A3020000000000
(1700000006.739015) can0 185#8589010000000000
(1700000006.739330) can0 110#10A8010000000000
(1700000006.747115) can0 0B0#B0A4020000000000
(1700000006.756505) can0 110#10A9010000000000
(1700000006.756632) can0 0B0#B0A5020000000000
(1700000006.761861) can0 224#24A9000000000000
(1700000006.765241) can0 185#858A010000000000
(1700000006.766926) can0 0B0#B0A6020000000000
(1700000006.770871) can0 110#10AA010000000000
(1700000006.776157) can0 0B0#B0A7020000000000
(1700000006.785293) can0 110#10AB010000000000
(1700000006.786733) can0 0B0#B0A8020000000000
(1700000006.789400) can0 185#858B010000000000
(1700000006.797177) can0 0B0#B0A9020000000000
(1700000006.801073) can0 110#10AC010000000000
(1700000006.801336) can0 2A9#A96B000000000000
(1700000006.804579) can0 224#24AA000000000000
(1700000006.806327) can0 0B0#B0AA020000000000
(1700000006.815063) can0 185#858C010000000000
(1700000006.816136) can0 0B0#B0AB020000000000
(1700000006.817128) can0 110#10AD010000000000
(1700000006.824449) can0 333#3344000000000000
(1700000006.825967) can0 0B0#B0AC020000000000
(1700000006.831785) can0 110#10AE010000000000
(1700000006.835730) can0 0B0#B0AD020000000000
(1700000006.840483) can0 185#858D010000000000
(1700000006.844235) can0 224#24AB000000000000
(1700000006.846472) can0 0B0#B0AE020000000000
(1700000006.848222) can0 110#10AF010000000000
(1700000006.855511) can0 0B0#B0AF020000000000
(1700000006.863490) can0 110#10B0010000000000
(1700000006.865032) can0 0B0#B0B0020000000000
(1700000006.867130) can0 185#858E010000000000
(1700000006.869700) can0 2A9#A96C000000000000
(1700000006.875863) can0 0B0#B0B1020000000000
(1700000006.877941) can0 110#10B1010000000000
(1700000006.880538) can0 224#24AC000000000000
(1700000006.885663) can0 0B0#B0B2020000000000
(1700000006.891211) can0 185#858F010000000000
(1700000006.894506) can0 110#10B2010000000000
(1700000006.895626) can0 0B0#B0B3020000000000
(1700000006.906215) can0 0B0#B0B4020000000000
(1700000006.911339) can0 110#10B3010000000000
(1700000006.916846) can0 0B0#B0B5020000000000
(1700000006.917348) can0 185#8590010000000000
(1700000006.920828) can0 224#24AD000000000000
(1700000006.926120) can0 110#10B4010000000000
(1700000006.926209) can0 0B0#B0B6020000000000
(1700000006.927700) can0 333#3345000000000000
(1700000006.936211) can0 0B0#B0B7020000000000
(1700000006.937018) can0 2A9#A96D000000000000
(1700000006.940597) can0 110#10B5010000000000
(1700000006.943258) can0 185#8591010000000000
(1700000006.946001) can0 0B0#B0B8020000000000
(1700000006.956548) can0 0B0#B0B9020000000000
(1700000006.956779) can0 224#24AE000000000000
(1700000006.957490) can0 110#10B6010000000000
(1700000006.967388) can0 0B0#B0BA020000000000
(1700000006.967860) can0 185#8592010000000000
(1700000006.974638) can0 110#10B7010000000000
(1700000006.976729) can0 0B0#B0BB020000000000
(1700000006.987588) can0 0B0#B0BC020000000000
(1700000006.990677) can0 110#10B8010000000000
(1700000006.993112) can0 185#8593010000000000
(1700000006.998331) can0 0B0#B0BD020000000000
(1700000007.000387) can0 224#24AF000000000000
(1700000007.005680) can0 2A9#A96E000000000000
(1700000007.005771) can0 110#10B9010000000000
(1700000007.008390) can0 0B0#B0BE020000000000
(1700000007.016267) can0 185#8594010000000000
(1700000007.018175) can0 0B0#B0BF020000000000
(1700000007.021319) can0 110#10BA010000000000
(1700000007.027850) can0 0B0#B0C0020000000000
(1700000007.036186) can0 333#3346000000000000
(1700000007.036416) can0 110#10BB010000000000
(1700000007.036974) can0 224#24B0000000000000
(1700000007.038037) can0 0B0#B0C1020000000000
(1700000007.043521) can0 185#8595010000000000
(1700000007.047955) can0 0B0#B0C2020000000000
(1700000007.053459) can0 110#10BC010000000000
(1700000007.058723) can0 0B0#B0C3020000000000
(1700000007.063412) can0 2A9#A96F000000000000
(1700000007.066653) can0 185#8596010000000000
(1700000007.068095) can0 0B0#B0C4020000000000
(1700000007.068742) can0 110#10BD010000000000
(1700000007.076469) can0 224#24B1000000000000
(1700000007.078558) can0 0B0#B0C5020000000000
(1700000007.085654) can0 110#10BE010000000000
(1700000007.087730) can0 0B0#B0C6020000000000
(1700000007.089641) can0 185#8597010000000000
(1700000007.097643) can0 0B0#B0C7020000000000
(1700000007.101369) can0 110#10BF010000000000
(1700000007.107666) can0 0B0#B0C8020000000000
(1700000007.114968) can0 185#8598010000000000
(1700000007.118416) can0 110#10C0010000000000
(1700000007.118511) can0 0B0#B0C9020000000000
(1700000007.119137) can0 224#24B2000000000000
(1700000007.128794) can0 0B0#B0CA020000000000
(1700000007.130518) can0 2A9#A970000000000000
(1700000007.133648) can0 110#10C1010000000000
(1700000007.137848) can0 0B0#B0CB020000000000
(1700000007.139876) can0 185#8599010000000000
(1700000007.140777) can0 333#3347000000000000
(1700000007.148644) can0 0B0#B0CC020000000000
(1700000007.149051) can0 110#10C2010000000000
(1700000007.158159) can0 0B0#B0CD020000000000
(1700000007.159688) can0 224#24B3000000000000
(1700000007.163572) can0 110#10C3010000000000
(1700000007.163946) can0 185#859A010000000000
(1700000007.167191) can0 0B0#B0CE020000000000
(1700000007.176286) can0 0B0#B0CF020000000000
(1700000007.177997) can0 110#10C4010000000000
(1700000007.186710) can0 0B0#B0D0020000000000
(1700000007.186742) can0 185#859B010000000000
(1700000007.194290) can0 110#10C5010000000000
(1700000007.196503) can0 0B0#B0D1020000000000
(1700000007.196592) can0 224#24B4000000000000
(1700000007.199842) can0 2A9#A971000000000000
(1700000007.206051) can0 0B0#B0D2020000000000
(1700000007.209584) can0 110#10C6010000000000
(1700000007.214088) can0 185#859C010000000000
(1700000007.215093) can0 0B0#B0D3020000000000
(1700000007.223890) can0 110#10C7010000000000
(1700000007.224820) can0 0B0#B0D4020000000000
(1700000007.231340) can0 333#3348000000000000
(1700000007.234873) can0 0B0#B0D5020000000000
(1700000007.237784) can0 224#24B5000000000000
(1700000007.238181) can0 110#10C8010000000000
(1700000007.239295) can0 185#859D010000000000
(1700000007.244610) can0 0B0#B0D6020000000000
(1700000007.253943) can0 110#10C9010000000000
(1700000007.254620) can0 0B0#B0D7020000000000
(1700000007.259703) can0 2A9#A972000000000000
(1700000007.265253) can0 0B0#B0D8020000000000
(1700000007.265630) can0 185#859E010000000000
(1700000007.269468) can0 110#10CA010000000000
(1700000007.275827) can0 0B0#B0D9020000000000
(1700000007.279515) can0 224#24B6000000000000
(1700000007.283765) can0 110#10CB010000000000
(1700000007.285183) can0 0B0#B0DA020000000000
(1700000007.291723) can0 185#859F010000000000
(1700000007.294796) can0 0B0#B0DB020000000000
(1700000007.298117) can0 110#10CC010000000000
(1700000007.304151) can0 0B0#B0DC020000000000
(1700000007.313977) can0 0B0#B0DD020000000000
(1700000007.314189) can0 110#10CD010000000000
(1700000007.316246) can0 185#85A0010000000000
(1700000007.321505) can0 224#24B7000000000000
(1700000007.323874) can0 0B0#B0DE020000000000
(1700000007.326854) can0 333#3349000000000000
(1700000007.327566) can0 2A9#A973000000000000
(1700000007.328613) can0 110#10CE010000000000
(1700000007.332934) can0 0B0#B0DF020000000000
(1700000007.342350) can0 0B0#B0E0020000000000
(1700000007.342462) can0 185#85A1010000000000
(1700000007.345050) can0 110#10CF010000000000
(1700000007.352512) can0 0B0#B0E1020000000000
(1700000007.361784) can0 110#10D0010000000000
(1700000007.363028) can0 0B0#B0E2020000000000
(1700000007.364731) can0 224#24B8000000000000
(1700000007.367344) can0 185#85A2010000000000
(1700000007.373564) can0 0B0#B0E3020000000000
(1700000007.377888) can0 110#10D1010000000000
(1700000007.382729) can0 0B0#B0E4020000000000
(1700000007.392445) can0 2A9#A974000000000000
(1700000007.393699) can0 0B0#B0E5020000000000
(1700000007.394248) can0 110#10D2010000000000
(1700000007.394270) can0 185#85A3010000000000
(1700000007.402204) can0 224#24B9000000000000
(1700000007.404387) can0 0B0#B0E6020000000000
(1700000007.409584) can0 110#10D3010000000000
(1700000007.413535) can0 0B0#B0E7020000000000
(1700000007.418472) can0 185#85A4010000000000
(1700000007.423957) can0 0B0#B0E8020000000000
(1700000007.426009) can0 110#10D4010000000000
(1700000007.434025) can0 0B0#B0E9020000000000
(1700000007.435559) can0 333#334A000000000000
(1700000007.439719) can0 224#24BA000000000000
(1700000007.440312) can0 110#10D5010000000000
(1700000007.443152) can0 0B0#B0EA020000000000
(1700000007.444591) can0 185#85A5010000000000
(1700000007.454119) can0 0B0#B0EB020000000000
(1700000007.455485) can0 110#10D6010000000000
(1700000007.455499) can0 2A9#A975000000000000
(1700000007.464893) can0 0B0#B0EC020000000000
(1700000007.468725) can0 185#85A6010000000000
(1700000007.470346) can0 110#10D7010000000000
(1700000007.475505) can0 0B0#B0ED020000000000
(1700000007.479556) can0 224#24BB000000000000
(1700000007.485116) can0 0B0#B0EE020000000000
(1700000007.485870) can0 110#10D8010000000000
(1700000007.494847) can0 0B0#B0EF020000000000
(1700000007.495561) can0 185#85A7010000000000
(1700000007.503076) can0 110#10D9010000000000
(1700000007.504614) can0 0B0#B0F0020000000000
(1700000007.514427) can0 0B0#B0F1020000000000
(1700000007.518047) can0 110#10DA010000000000
(1700000007.518141) can0 224#24BC000000000000
(1700000007.521890) can0 2A9#A976000000000000
(1700000007.522006) can0 185#85A8010000000000
(1700000007.523669) can0 0B0#B0F2020000000000
(1700000007.533220) can0 0B0#B0F3020000000000
(1700000007.533350) can0 110#10DB010000000000
(1700000007.534718) can0 333#334B000000000000
(1700000007.542796) can0 0B0#B0F4020000000000
(1700000007.548604) can0 110#10DC010000000000
(1700000007.549187) can0 185#85A9010000000000
(1700000007.553280) can0 0B0#B0F5020000000000
(1700000007.561412) can0 224#24BD000000000000
(1700000007.564002) can0 0B0#B0F6020000000000
(1700000007.565460) can0 110#10DD010000000000
(1700000007.574359) can0 0B0#B0F7020000000000
(1700000007.574474) can0 185#85AA010000000000
(1700000007.580106) can0 110#10DE010000000000
(1700000007.584367) can0 0B0#B0F8020000000000
(1700000007.586542) can0 2A9#A977000000000000
(1700000007.594968) can0 110#10DF010000000000
(1700000007.595126) can0 0B0#B0F9020000000000
(1700000007.601337) can0 185#85AB010000000000
(1700000007.602447) can0 224#24BE000000000000
(1700000007.604859) can0 0B0#B0FA020000000000
(1700000007.610022) can0 110#10E0010000000000
(1700000007.615639) can0 0B0#B0FB020000000000
(1700000007.625746) can0 0B0#B0FC020000000000
(1700000007.626236) can0 110#10E1010000000000
(1700000007.626533) can0 185#85AC010000000000
(1700000007.629211) can0 333#334C000000000000
(1700000007.635921) can0 0B0#B0FD020000000000
(1700000007.640415) can0 224#24BF000000000000
(1700000007.643544) can0 110#10E2010000000000
(1700000007.643911) can0 2A9#A978000000000000
(1700000007.646207) can0 0B0#B0FE020000000000
(1700000007.650692) can0 185#85AD010000000000
(1700000007.655296) can0 0B0#B0FF020000000000
(1700000007.659645) can0 110#10E3010000000000
(1700000007.665574) can0 0B0#B000030000000000
(1700000007.676413) can0 0B0#B001030000000000
(1700000007.676462) can0 185#85AE010000000000
(1700000007.676719) can0 110#10E4010000000000
(1700000007.678933) can0 224#24C0000000000000
(1700000007.686339) can0 0B0#B002030000000000
(1700000007.692201) can0 110#10E5010000000000
(1700000007.697227) can0 0B0#B003030000000000
(1700000007.701233) can0 2A9#A979000000000000
(1700000007.702337) can0 185#85AF010000000000
(1700000007.708098) can0 0B0#B004030000000000
(1700000007.708708) can0 110#10E6010000000000
(1700000007.715412) can0 224#24C1000000000000
(1700000007.718096) can0 0B0#B005030000000000
(1700000007.725109) can0 110#10E7010000000000
(1700000007.727184) can0 0B0#B006030000000000
(1700000007.727430) can0 185#85B0010000000000
(1700000007.735121) can0 333#334D000000000000
(1700000007.736234) can0 0B0#B007030000000000
(1700000007.740104) can0 110#10E8010000000000
(1700000007.746757) can0 0B0#B008030000000000
(1700000007.751605) can0 224#24C2000000000000
(1700000007.752723) can0 185#85B1010000000000
(1700000007.754604) can0 110#10E9010000000000
(1700000007.757636) can0 0B0#B009030000000000
(1700000007.766981) can0 2A9#A97A000000000000
(1700000007.767120) can0 0B0#B00A030000000000
(1700000007.770795) can0 110#10EA010000000000
(1700000007.777434) can0 185#85B2010000000000
(1700000007.778003) can0 0B0#B00B030000000000
(1700000007.785137) can0 110#10EB010000000000
(1700000007.787824) can0 0B0#B00C030000000000
(1700000007.794920) can0 224#24C3000000000000
(1700000007.798430) can0 0B0#B00D030000000000
(1700000007.799755) can0 110#10EC010000000000
(1700000007.803993) can0 185#85B3010000000000
(1700000007.809281) can0 0B0#B00E030000000000
(1700000007.814194) can0 110#10ED010000000000
(1700000007.818488) can0 0B0#B00F030000000000
(1700000007.825659) can0 333#334E000000000000
(1700000007.827884) can0 0B0#B010030000000000
(1700000007.828309) can0 2A9#A97B000000000000
(1700000007.829444) can0 110#10EE010000000000
(1700000007.830825) can0 185#85B4010000000000
(1700000007.836438) can0 224#24C4000000000000
(1700000007.837886) can0 0B0#B011030000000000
(1700000007.844262) can0 110#10EF010000000000
(1700000007.848414) can0 0B0#B012030000000000
(1700000007.853788) can0 185#85B5010000000000
(1700000007.858691) can0 110#10F0010000000000
(1700000007.859108) can0 0B0#B013030000000000
(1700000007.868812) can0 0B0#B014030000000000
(1700000007.873080) can0 110#10F1010000000000
(1700000007.878700) can0 0B0#B015030000000000
(1700000007.879654) can0 224#24C5000000000000
(1700000007.880203) can0 185#85B6010000000000
(1700000007.888547) can0 0B0#B016030000000000
(1700000007.888691) can0 110#10F2010000000000
(1700000007.895353) can0 2A9#A97C000000000000
(1700000007.897834) can0 0B0#B017030000000000
(1700000007.904018) can0 110#10F3010000000000
(1700000007.906640) can0 185#85B7010000000000
(1700000007.907889) can0 0B0#B018030000000000
(1700000007.916924) can0 224#24C6000000000000
(1700000007.918246) can0 0B0#B019030000000000
(1700000007.919592) can0 110#10F4010000000000
(1700000007.928897) can0 0B0#B01A030000000000
(1700000007.929432) can0 185#85B8010000000000
(1700000007.931447) can0 333#334F000000000000
(1700000007.936357) can0 110#10F5010000000000
(1700000007.938251) can0 0B0#B01B030000000000
(1700000007.947513) can0 0B0#B01C030000000000
(1700000007.950931) can0 110#10F6010000000000
(1700000007.952223) can0 185#85B9010000000000
(1700000007.957258) can0 0B0#B01D030000000000
(1700000007.957784) can0 224#24C7000000000000
(1700000007.962635) can0 2A9#A97D000000000000
(1700000007.967399) can0 0B0#B01E030000000000
(1700000007.967783) can0 110#10F7010000000000
(1700000007.977006) can0 185#85BA010000000000
(1700000007.977655) can0 0B0#B01F030000000000
(1700000007.982369) can0 110#10F8010000000000
(1700000007.988131) can0 0B0#B020030000000000
(1700000007.997323) can0 110#10F9010000000000
(1700000007.997406) can0 0B0#B021030000000000
(1700000007.998060) can0 224#24C8000000000000
